! VERSION = 6.00
BEGIN_HEADER
 ICCAP_INPUTS
  vg         V  G GROUND SMU2 1E-005 LIN	2	0	-5	6	-1
  vb         V  B GROUND SMU4 0.01 LIN	3	-1         -1         1    -1        
  vd         V  D GROUND SMU1 0.1 LIN	1	0          -5          51   -0.1       
  vs         V  S GROUND SMU3 0.1 CON        0
  ve         V  E GROUND SMU5 0.1 CON        0
 ICCAP_OUTPUTS
  id         I  D GROUND SMU1 B
  ib         I  D GROUND SMU4 B
  ig         I  D GROUND SMU2 B
END_HEADER


BEGIN_DB
 ICCAP_VAR vb	1.0000
 ICCAP_VAR vg	0.0000
 ICCAP_VAR ve	0
 ICCAP_VAR vs	0

 #vd              id              ib              ig
  0.0000		-2.83837e-10		0e-3		-1.05313e-08
  -0.1000		-4.48823e-10		0e-3		-1.06601e-08
  -0.2000		-7.01308e-10		0e-3		-1.06092e-08
  -0.3000		-6.29902e-10		0e-3		-1.03022e-08
  -0.4000		-5.95212e-10		0e-3		-1.00837e-08
  -0.5000		-5.43117e-10		0e-3		-1.00468e-08
  -0.6000		-4.73499e-10		0e-3		-9.88018e-09
  -0.7000		-6.06298e-10		0e-3		-9.93001e-09
  -0.8000		-5.79715e-10		0e-3		-9.78255e-09
  -0.9000		-5.89728e-10		0e-3		-9.93371e-09
  -1.0000		-1.04713e-09		0e-3		-9.98938e-09
  -1.1000		-7.15613e-10		0e-3		-9.91499e-09
  -1.2000		-6.69837e-10		0e-3		-9.60314e-09
  -1.3000		-6.22630e-10		0e-3		-9.27186e-09
  -1.4000		-8.20994e-10		0e-3		-9.39822e-09
  -1.5000		-8.06928e-10		0e-3		-9.67741e-09
  -1.6000		-7.59602e-10		0e-3		-9.40454e-09
  -1.7000		-7.65800e-10		0e-3		-9.22370e-09
  -1.8000		7.70092e-11		0e-3		-9.34529e-09
  -1.9000		-7.98345e-10		0e-3		-9.16684e-09
  -2.0000		-7.97153e-10		0e-3		-9.20284e-09
  -2.1000		-9.09805e-10		0e-3		-9.38308e-09
  -2.2000		-7.98583e-10		0e-3		-9.23216e-09
  -2.3000		-7.80106e-10		0e-3		-9.15420e-09
  -2.4000		-8.37922e-10		0e-3		-9.17602e-09
  -2.5000		-7.93576e-10		0e-3		-9.15456e-09
  -2.6000		-7.94172e-10		0e-3		-8.99351e-09
  -2.7000		-8.23021e-10		0e-3		-9.02116e-09
  -2.8000		-9.04083e-10		0e-3		-8.88276e-09
  -2.9000		-9.74178e-10		0e-3		-8.93366e-09
  -3.0000		-9.87530e-10		0e-3		-8.78215e-09
  -3.1000		-9.37581e-10		0e-3		-8.70097e-09
  -3.2000		-8.73446e-10		0e-3		-8.72707e-09
  -3.3000		-9.18746e-10		0e-3		-8.73601e-09
  -3.4000		-8.89182e-10		0e-3		-8.73065e-09
  -3.5000		-9.22918e-10		0e-3		-8.59487e-09
  -3.6000		-9.67741e-10		0e-3		-8.58212e-09
  -3.7000		-9.88126e-10		0e-3		-8.51691e-09
  -3.8000		-1.03176e-09		0e-3		-8.43692e-09
  -3.9000		-1.02389e-09		0e-3		-8.50570e-09
  -4.0000		-9.53078e-10		0e-3		-8.44753e-09
  -4.1000		-9.96232e-10		0e-3		-8.37553e-09
  -4.2000		-8.90136e-10		0e-3		-8.31020e-09
  -4.3000		-9.77635e-10		0e-3		-8.20923e-09
  -4.4000		-1.03080e-09		0e-3		-8.25095e-09
  -4.5000		-9.99093e-10		0e-3		-8.14593e-09
  -4.6000		-1.14596e-09		0e-3		-8.15415e-09
  -4.7000		-1.17099e-09		0e-3		-8.09324e-09
  -4.8000		-1.15371e-09		0e-3		-8.01837e-09
  -4.9000		-1.15144e-09		0e-3		-8.03864e-09
  -5.0000		-1.18148e-09		0e-3		-7.91597e-09
END_DB

BEGIN_DB
 ICCAP_VAR vb	1.0000
 ICCAP_VAR vg	-1.0000
 ICCAP_VAR ve	0
 ICCAP_VAR vs	0

 #vd              id              ib              ig
  0.0000		-1.06931e-10		0e-3		-1.50431e-08
  -0.1000		-3.79443e-10		0e-3		-1.18040e-08
  -0.2000		-4.73499e-10		0e-3		-1.14219e-08
  -0.3000		-5.30004e-10		0e-3		-1.07994e-08
  -0.4000		-6.33836e-10		0e-3		-1.09532e-08
  -0.5000		-6.25968e-10		0e-3		-1.07355e-08
  -0.6000		-6.54340e-10		0e-3		-1.06696e-08
  -0.7000		-6.16789e-10		0e-3		-1.06877e-08
  -0.8000		-6.23107e-10		0e-3		-1.06988e-08
  -0.9000		-6.23107e-10		0e-3		-1.06128e-08
  -1.0000		-6.98090e-10		0e-3		-1.05896e-08
  -1.1000		-7.53283e-10		0e-3		-1.05991e-08
  -1.2000		-7.38859e-10		0e-3		-1.05938e-08
  -1.3000		-7.46727e-10		0e-3		-1.05820e-08
  -1.4000		-8.06570e-10		0e-3		-1.06118e-08
  -1.5000		-7.42316e-10		0e-3		-1.06094e-08
  -1.6000		-7.66158e-10		0e-3		-1.06219e-08
  -1.7000		-7.54356e-10		0e-3		-1.05970e-08
  -1.8000		-7.80582e-10		0e-3		-1.05621e-08
  -1.9000		-7.84636e-10		0e-3		-1.05252e-08
  -2.0000		-8.26120e-10		0e-3		-1.02929e-08
  -2.1000		-8.63910e-10		0e-3		-1.02088e-08
  -2.2000		-8.59141e-10		0e-3		-9.99737e-09
  -2.3000		-8.51154e-10		0e-3		-9.75657e-09
  -2.4000		-8.39829e-10		0e-3		-1.00131e-08
  -2.5000		-8.39353e-10		0e-3		-9.95278e-09
  -2.6000		-8.80837e-10		0e-3		-1.00487e-08
  -2.7000		-8.38518e-10		0e-3		-1.01113e-08
  -2.8000		-8.74162e-10		0e-3		-9.94504e-09
  -2.9000		-9.62019e-10		0e-3		-9.83894e-09
  -3.0000		-9.84550e-10		0e-3		-1.00867e-08
  -3.1000		-9.77397e-10		0e-3		-9.88281e-09
  -3.2000		-9.78589e-10		0e-3		-9.94134e-09
  -3.3000		-8.70824e-10		0e-3		-1.00945e-08
  -3.4000		-9.42230e-10		0e-3		-1.00073e-08
  -3.5000		-9.46641e-10		0e-3		-1.00949e-08
  -3.6000		-9.63807e-10		0e-3		-1.00935e-08
  -3.7000		-1.00386e-09		0e-3		-9.87363e-09
  -3.8000		-1.01268e-09		0e-3		-9.82201e-09
  -3.9000		-1.00255e-09		0e-3		-9.90629e-09
  -4.0000		-9.93490e-10		0e-3		-1.01074e-08
  -4.1000		-1.01686e-09		0e-3		-1.01699e-08
  -4.2000		-9.82404e-10		0e-3		-1.00540e-08
  -4.3000		-1.01054e-09		0e-3		-9.75132e-09
  -4.4000		-1.01626e-09		0e-3		-9.99904e-09
  -4.5000		-1.07479e-09		0e-3		-9.85622e-09
  -4.6000		-1.09839e-09		0e-3		-9.85181e-09
  -4.7000		-1.11437e-09		0e-3		-9.97448e-09
  -4.8000		-1.12391e-09		0e-3		-9.64069e-09
  -4.9000		-9.57727e-10		0e-3		-7.14922e-09
  -5.0000		-1.06287e-09		0e-3		-7.11715e-09
END_DB

BEGIN_DB
 ICCAP_VAR vb	1.0000
 ICCAP_VAR vg	-2.0000
 ICCAP_VAR ve	0
 ICCAP_VAR vs	0

 #vd              id              ib              ig
  0.0000		3.31184e-08		0e-3		-1.51192e-08
  -0.1000		-4.48568e-05		0e-3		-1.28796e-08
  -0.2000		-7.36475e-05		0e-3		-1.14836e-08
  -0.3000		-8.79049e-05		0e-3		-1.11369e-08
  -0.4000		-9.31144e-05		0e-3		-1.11974e-08
  -0.5000		-9.49860e-05		0e-3		-1.09534e-08
  -0.6000		-9.60231e-05		0e-3		-1.12581e-08
  -0.7000		-9.67145e-05		0e-3		-1.23080e-08
  -0.8000		-9.71675e-05		0e-3		-1.17543e-08
  -0.9000		-9.75847e-05		0e-3		-1.16338e-08
  -1.0000		-9.80377e-05		0e-3		-1.13649e-08
  -1.1000		-9.84907e-05		0e-3		-1.13995e-08
  -1.2000		-9.88007e-05		0e-3		-1.10884e-08
  -1.3000		-9.90510e-05		0e-3		-1.09848e-08
  -1.4000		-9.92775e-05		0e-3		-1.08513e-08
  -1.5000		-9.96590e-05		0e-3		-1.47809e-08
  -1.6000		-9.99212e-05		0e-3		-1.06204e-08
  -1.7000		-1.00148e-04		0e-3		-1.05848e-08
  -1.8000		-1.00517e-04		0e-3		-1.05088e-08
  -1.9000		-1.00672e-04		0e-3		-1.04842e-08
  -2.0000		-1.00946e-04		0e-3		-1.05323e-08
  -2.1000		-1.01125e-04		0e-3		-1.02988e-08
  -2.2000		-1.01388e-04		0e-3		-1.03652e-08
  -2.3000		-1.01626e-04		0e-3		-1.02137e-08
  -2.4000		-1.01817e-04		0e-3		-1.02427e-08
  -2.5000		-1.02115e-04		0e-3		-1.03083e-08
  -2.6000		-1.02317e-04		0e-3		-1.00541e-08
  -2.7000		-1.02496e-04		0e-3		-9.86624e-09
  -2.8000		-1.02711e-04		0e-3		-9.66811e-09
  -2.9000		-1.02937e-04		0e-3		-9.65977e-09
  -3.0000		-1.03152e-04		0e-3		-9.19116e-09
  -3.1000		-1.03366e-04		0e-3		-9.52160e-09
  -3.2000		-1.03581e-04		0e-3		-9.41622e-09
  -3.3000		-1.03819e-04		0e-3		-9.70447e-09
  -3.4000		-1.03986e-04		0e-3		-9.70197e-09
  -3.5000		-1.04201e-04		0e-3		-9.23586e-09
  -3.6000		-1.04487e-04		0e-3		-9.88185e-09
  -3.7000		-1.04761e-04		0e-3		-9.68564e-09
  -3.8000		-1.05047e-04		0e-3		-9.84168e-09
  -3.9000		-1.05309e-04		0e-3		-9.72474e-09
  -4.0000		-1.05631e-04		0e-3		-9.53329e-09
  -4.1000		-1.05882e-04		0e-3		-9.48715e-09
  -4.2000		-1.06275e-04		0e-3		-9.02986e-09
  -4.3000		-1.06704e-04		0e-3		-9.02545e-09
  -4.4000		-1.07026e-04		0e-3		-9.17768e-09
  -4.5000		-1.07503e-04		0e-3		-9.29308e-09
  -4.6000		-1.08039e-04		0e-3		-9.18877e-09
  -4.7000		-1.08564e-04		0e-3		-8.88455e-09
  -4.8000		-1.09148e-04		0e-3		-8.88801e-09
  -4.9000		-1.09911e-04		0e-3		-9.05693e-09
  -5.0000		-1.10686e-04		0e-3		-8.78870e-09
END_DB

BEGIN_DB
 ICCAP_VAR vb	1.0000
 ICCAP_VAR vg	-3.0000
 ICCAP_VAR ve	0
 ICCAP_VAR vs	0

 #vd              id              ib              ig
  0.0000		2.16267e-08		0e-3		-1.81694e-08
  -0.1000		-1.72853e-04		0e-3		-1.28006e-08
  -0.2000		-3.29864e-04		0e-3		-1.06968e-08
  -0.3000		-4.70901e-04		0e-3		-1.07892e-08
  -0.4000		-5.95891e-04		0e-3		-1.13183e-08
  -0.5000		-7.04682e-04		0e-3		-1.08062e-08
  -0.6000		-7.97200e-04		0e-3		-1.14230e-08
  -0.7000		-8.73637e-04		0e-3		-1.07683e-08
  -0.8000		-9.34362e-04		0e-3		-1.08047e-08
  -0.9000		-9.80318e-04		0e-3		-1.06727e-08
  -1.0000		-1.01302e-03		0e-3		-1.06533e-08
  -1.1000		-1.03481e-03		0e-3		-1.06570e-08
  -1.2000		-1.04854e-03		0e-3		-1.06264e-08
  -1.3000		-1.05746e-03		0e-3		-1.06130e-08
  -1.4000		-1.06387e-03		0e-3		-1.06499e-08
  -1.5000		-1.06891e-03		0e-3		-1.06342e-08
  -1.6000		-1.07324e-03		0e-3		-1.06717e-08
  -1.7000		-1.07706e-03		0e-3		-1.06254e-08
  -1.8000		-1.08060e-03		0e-3		-1.06432e-08
  -1.9000		-1.08377e-03		0e-3		-1.06195e-08
  -2.0000		-1.08681e-03		0e-3		-1.06236e-08
  -2.1000		-1.08966e-03		0e-3		-1.06241e-08
  -2.2000		-1.09247e-03		0e-3		-1.06293e-08
  -2.3000		-1.09507e-03		0e-3		-1.06374e-08
  -2.4000		-1.09756e-03		0e-3		-1.06548e-08
  -2.5000		-1.10000e-03		0e-3		-1.06131e-08
  -2.6000		-1.10234e-03		0e-3		-1.06142e-08
  -2.7000		-1.10470e-03		0e-3		-1.05919e-08
  -2.8000		-1.10692e-03		0e-3		-1.05805e-08
  -2.9000		-1.10915e-03		0e-3		-1.06012e-08
  -3.0000		-1.11139e-03		0e-3		-1.05035e-08
  -3.1000		-1.11353e-03		0e-3		-1.04215e-08
  -3.2000		-1.11555e-03		0e-3		-9.94790e-09
  -3.3000		-1.11766e-03		0e-3		-1.04018e-08
  -3.4000		-1.11974e-03		0e-3		-1.02726e-08
  -3.5000		-1.12174e-03		0e-3		-1.02770e-08
  -3.6000		-1.12376e-03		0e-3		-9.97698e-09
  -3.7000		-1.12566e-03		0e-3		-1.00667e-08
  -3.8000		-1.12768e-03		0e-3		-9.70042e-09
  -3.9000		-1.12977e-03		0e-3		-9.65643e-09
  -4.0000		-1.13187e-03		0e-3		-9.62365e-09
  -4.1000		-1.13389e-03		0e-3		-9.62663e-09
  -4.2000		-1.13614e-03		0e-3		-9.72855e-09
  -4.3000		-1.13870e-03		0e-3		-9.49252e-09
  -4.4000		-1.14123e-03		0e-3		-8.97968e-09
  -4.5000		-1.14417e-03		0e-3		-9.47762e-09
  -4.6000		-1.14720e-03		0e-3		-9.76086e-09
  -4.7000		-1.15058e-03		0e-3		-9.89199e-09
  -4.8000		-1.15435e-03		0e-3		-9.64379e-09
  -4.9000		-1.15844e-03		0e-3		-9.05144e-09
  -5.0000		-1.16276e-03		0e-3		-8.52287e-09
END_DB

BEGIN_DB
 ICCAP_VAR vb	1.0000
 ICCAP_VAR vg	-4.0000
 ICCAP_VAR ve	0
 ICCAP_VAR vs	0

 #vd              id              ib              ig
  0.0000		-5.08081e-07		0e-3		-1.60261e-08
  -0.1000		-2.81799e-04		0e-3		-1.44907e-08
  -0.2000		-5.49662e-04		0e-3		-1.35882e-08
  -0.3000		-8.03339e-04		0e-3		-1.32388e-08
  -0.4000		-1.04299e-03		0e-3		-1.28567e-08
  -0.5000		-1.26834e-03		0e-3		-1.24221e-08
  -0.6000		-1.47916e-03		0e-3		-1.23264e-08
  -0.7000		-1.67538e-03		0e-3		-1.19518e-08
  -0.8000		-1.85691e-03		0e-3		-1.19140e-08
  -0.9000		-2.02399e-03		0e-3		-1.19270e-08
  -1.0000		-2.17632e-03		0e-3		-1.17097e-08
  -1.1000		-2.31442e-03		0e-3		-1.14361e-08
  -1.2000		-2.43745e-03		0e-3		-1.14508e-08
  -1.3000		-2.54575e-03		0e-3		-1.12189e-08
  -1.4000		-2.63956e-03		0e-3		-1.08805e-08
  -1.5000		-2.71922e-03		0e-3		-1.11599e-08
  -1.6000		-2.78522e-03		0e-3		-1.15378e-08
  -1.7000		-2.83850e-03		0e-3		-1.13175e-08
  -1.8000		-2.88042e-03		0e-3		-1.13100e-08
  -1.9000		-2.91239e-03		0e-3		-1.13077e-08
  -2.0000		-2.93677e-03		0e-3		-1.11047e-08
  -2.1000		-2.95553e-03		0e-3		-1.09905e-08
  -2.2000		-2.97065e-03		0e-3		-1.07788e-08
  -2.3000		-2.98297e-03		0e-3		-1.06173e-08
  -2.4000		-2.99371e-03		0e-3		-1.07106e-08
  -2.5000		-3.00323e-03		0e-3		-1.04858e-08
  -2.6000		-3.01200e-03		0e-3		-1.05547e-08
  -2.7000		-3.02024e-03		0e-3		-1.05530e-08
  -2.8000		-3.02790e-03		0e-3		-1.04052e-08
  -2.9000		-3.03531e-03		0e-3		-1.03581e-08
  -3.0000		-3.04228e-03		0e-3		-1.02229e-08
  -3.1000		-3.04904e-03		0e-3		-1.02764e-08
  -3.2000		-3.05564e-03		0e-3		-1.02528e-08
  -3.3000		-3.06195e-03		0e-3		-1.01370e-08
  -3.4000		-3.06822e-03		0e-3		-1.01384e-08
  -3.5000		-3.07417e-03		0e-3		-1.00991e-08
  -3.6000		-3.08018e-03		0e-3		-1.00460e-08
  -3.7000		-3.08598e-03		0e-3		-9.98330e-09
  -3.8000		-3.09175e-03		0e-3		-9.97257e-09
  -3.9000		-3.09721e-03		0e-3		-9.93168e-09
  -4.0000		-3.10273e-03		0e-3		-9.97782e-09
  -4.1000		-3.10813e-03		0e-3		-9.87709e-09
  -4.2000		-3.11359e-03		0e-3		-9.90975e-09
  -4.3000		-3.11890e-03		0e-3		-9.77218e-09
  -4.4000		-3.12421e-03		0e-3		-9.79912e-09
  -4.5000		-3.12958e-03		0e-3		-9.79328e-09
  -4.6000		-3.13494e-03		0e-3		-9.71639e-09
  -4.7000		-3.14040e-03		0e-3		-9.59766e-09
  -4.8000		-3.14600e-03		0e-3		-9.59015e-09
  -4.9000		-3.15185e-03		0e-3		-9.39798e-09
  -5.0000		-3.15804e-03		0e-3		-9.45067e-09
END_DB

BEGIN_DB
 ICCAP_VAR vb	1.0000
 ICCAP_VAR vg	-5.0000
 ICCAP_VAR ve	0
 ICCAP_VAR vs	0

 #vd              id              ib              ig
  0.0000		-1.14876e-06		0e-3		-1.59976e-08
  -0.1000		-3.76391e-04		0e-3		-1.51303e-08
  -0.2000		-7.40385e-04		0e-3		-1.42193e-08
  -0.3000		-1.09168e-03		0e-3		-1.37645e-08
  -0.4000		-1.43014e-03		0e-3		-1.35661e-08
  -0.5000		-1.75581e-03		0e-3		-1.31992e-08
  -0.6000		-2.06832e-03		0e-3		-1.29303e-08
  -0.7000		-2.36770e-03		0e-3		-1.26693e-08
  -0.8000		-2.65383e-03		0e-3		-1.24068e-08
  -0.9000		-2.92673e-03		0e-3		-1.23537e-08
  -1.0000		-3.18639e-03		0e-3		-1.22617e-08
  -1.1000		-3.43363e-03		0e-3		-1.21433e-08
  -1.2000		-3.66648e-03		0e-3		-1.19261e-08
  -1.3000		-3.88560e-03		0e-3		-1.17195e-08
  -1.4000		-4.09141e-03		0e-3		-1.10589e-08
  -1.5000		-4.28357e-03		0e-3		-1.20852e-08
  -1.6000		-4.46192e-03		0e-3		-1.11325e-08
  -1.7000		-4.62692e-03		0e-3		1.07372e-09
  -1.8000		-4.77822e-03		0e-3		-1.09363e-08
  -1.9000		-4.91580e-03		0e-3		-1.12029e-08
  -2.0000		-4.91095e-03		0e-3		-1.09565e-08
  -2.1000		-5.00822e-03		0e-3		-1.13267e-08
  -2.2000		-5.10335e-03		0e-3		-1.09111e-08
  -2.3000		-5.19538e-03		0e-3		-1.07149e-08
  -2.4000		-5.26571e-03		0e-3		-1.09444e-08
  -2.5000		-5.33271e-03		0e-3		-1.13385e-08
  -2.6000		-5.37372e-03		0e-3		-1.09226e-08
  -2.7000		-5.42343e-03		0e-3		-1.08229e-08
  -2.8000		-5.46575e-03		0e-3		-8.32152e-09
  -2.9000		-5.48077e-03		0e-3		-1.23960e-08
  -3.0000		-5.50604e-03		0e-3		-8.63147e-09
  -3.1000		-5.52344e-03		0e-3		-9.90355e-09
  -3.2000		-5.55587e-03		0e-3		-1.19950e-08
  -3.3000		-5.57840e-03		0e-3		-1.17754e-08
  -3.4000		-5.59282e-03		0e-3		-1.01026e-08
  -3.5000		-5.60403e-03		0e-3		-9.80389e-09
  -3.6000		-5.63443e-03		0e-3		-9.25529e-09
  -3.7000		-5.62251e-03		0e-3		-1.12207e-08
  -3.8000		-5.66316e-03		0e-3		-1.15966e-08
  -3.9000		-5.66745e-03		0e-3		-9.97567e-09
  -4.0000		-5.66399e-03		0e-3		-1.01602e-08
  -4.1000		-5.68998e-03		0e-3		-1.06347e-08
  -4.2000		-5.70512e-03		0e-3		-1.05839e-08
  -4.3000		-5.71489e-03		0e-3		-1.15372e-08
  -4.4000		-5.72133e-03		0e-3		-9.79650e-09
  -4.5000		-5.72538e-03		0e-3		-1.12507e-08
  -4.6000		-5.73146e-03		0e-3		-9.45842e-09
  -4.7000		-5.76067e-03		0e-3		-1.08973e-08
  -4.8000		-5.76866e-03		0e-3		-1.05196e-08
  -4.9000		-5.75018e-03		0e-3		-9.91046e-09
  -5.0000		-5.77879e-03		0e-3		-9.49609e-09
END_DB