! VERSION = 6.00
BEGIN_HEADER
 ICCAP_INPUTS
  vg         V  G GROUND SMU2 1E-005 LIN        1    1          -5          61   -0.1       
  vb         V  B GROUND SMU4 0.01 LIN        2    -1          -1         1    -1        
  vd         V  D GROUND SMU1 0.1 LIN        3    -0.05       -5          6    -0.99      
  vs         V  S GROUND SMU3 0.1 CON        0
  ve         V  E GROUND SMU5 0.1 CON        0
 ICCAP_OUTPUTS
  id         I  D GROUND SMU1 B
  ib         I  D GROUND SMU4 B
  ig         I  D GROUND SMU2 B
END_HEADER


BEGIN_DB
 ICCAP_VAR vd	-0.0500
 ICCAP_VAR vb	1.0000
 ICCAP_VAR ve	0
 ICCAP_VAR vs	0

 #vg              id              ig              ib
  1.0000		-4.15087e-09		-1.05952e-08		0e-3
  0.9000		-4.12726e-09		-1.06944e-08		0e-3
  0.8000		-4.02319e-09		-1.08716e-08		0e-3
  0.7000		-3.86441e-09		-1.07014e-08		0e-3
  0.6000		-4.22537e-09		-1.01407e-08		0e-3
  0.5000		-4.00722e-09		-1.05973e-08		0e-3
  0.4000		-4.03357e-09		-1.21295e-08		0e-3
  0.3000		-4.52578e-09		-1.06813e-08		0e-3
  0.2000		-4.19879e-09		-1.05978e-08		0e-3
  0.1000		-4.30620e-09		-1.06128e-08		0e-3
  0.0000		-4.33266e-09		-1.05774e-08		0e-3
  -0.1000		-4.10569e-09		-1.06252e-08		0e-3
  -0.2000		-4.10438e-09		-1.06671e-08		0e-3
  -0.3000		-4.02343e-09		-1.06413e-08		0e-3
  -0.4000		-4.06683e-09		-1.06665e-08		0e-3
  -0.5000		-4.12846e-09		-1.06200e-08		0e-3
  -0.6000		-4.22490e-09		-1.06137e-08		0e-3
  -0.7000		-4.32003e-09		-1.05844e-08		0e-3
  -0.8000		-4.36199e-09		-1.06006e-08		0e-3
  -0.9000		-4.73714e-09		-1.06192e-08		0e-3
  -1.0000		-5.70524e-09		-1.06366e-08		0e-3
  -1.1000		-1.06022e-08		-1.06132e-08		0e-3
  -1.2000		-3.72895e-08		-1.06570e-08		0e-3
  -1.3000		-1.78778e-07		-1.06500e-08		0e-3
  -1.4000		-8.00240e-07		-1.05934e-08		0e-3
  -1.5000		-2.57872e-06		-1.06051e-08		0e-3
  -1.6000		-5.70858e-06		-1.05660e-08		0e-3
  -1.7000		-9.75335e-06		-1.05871e-08		0e-3
  -1.8000		-1.42870e-05		-1.05901e-08		0e-3
  -1.9000		-1.90580e-05		-1.06058e-08		0e-3
  -2.0000		-2.39180e-05		-1.05915e-08		0e-3
  -2.1000		-2.87864e-05		-1.06875e-08		0e-3
  -2.2000		-3.36301e-05		-8.47852e-09		0e-3
  -2.3000		-3.84214e-05		-1.06549e-08		0e-3
  -2.4000		-4.31463e-05		-1.06272e-08		0e-3
  -2.5000		-4.77879e-05		-1.06636e-08		0e-3
  -2.6000		-5.27740e-05		-1.05964e-08		0e-3
  -2.7000		-5.71609e-05		-1.06074e-08		0e-3
  -2.8000		-6.15597e-05		-1.05994e-08		0e-3
  -2.9000		-6.59704e-05		-1.06342e-08		0e-3
  -3.0000		-7.00951e-05		-1.05776e-08		0e-3
  -3.1000		-7.42674e-05		-1.06328e-08		0e-3
  -3.2000		-7.82847e-05		-1.06248e-08		0e-3
  -3.3000		-8.23259e-05		-1.06512e-08		0e-3
  -3.4000		-8.62718e-05		-1.06322e-08		0e-3
  -3.5000		-9.00626e-05		-1.06212e-08		0e-3
  -3.6000		-9.39131e-05		-1.05877e-08		0e-3
  -3.7000		-9.76324e-05		-1.06242e-08		0e-3
  -3.8000		-1.01292e-04		-1.06528e-08		0e-3
  -3.9000		-1.04916e-04		-1.06528e-08		0e-3
  -4.0000		-1.08385e-04		-1.06810e-08		0e-3
  -4.1000		-1.11985e-04		-1.06293e-08		0e-3
  -4.2000		-1.15430e-04		-1.06673e-08		0e-3
  -4.3000		-1.18852e-04		-1.06504e-08		0e-3
  -4.4000		-1.22190e-04		-1.06230e-08		0e-3
  -4.5000		-1.25456e-04		-1.06841e-08		0e-3
  -4.6000		-1.28889e-04		-1.07028e-08		0e-3
  -4.7000		-1.32036e-04		-1.06851e-08		0e-3
  -4.8000		-1.35183e-04		-1.05486e-08		0e-3
  -4.9000		-1.38354e-04		-1.06224e-08		0e-3
  -5.0000		-1.41382e-04		-1.05879e-08		0e-3
END_DB

BEGIN_DB
 ICCAP_VAR vd	-1.0400
 ICCAP_VAR vb	1.0000
 ICCAP_VAR ve	0
 ICCAP_VAR vs	0

 #vg              id              ig              ib
  1.0000		-1.97936e-08		-1.04814e-08		0e-3
  0.9000		-1.96614e-08		-1.05225e-08		0e-3
  0.8000		-1.96246e-08		-1.05470e-08		0e-3
  0.7000		-1.95433e-08		-1.06236e-08		0e-3
  0.6000		-1.94917e-08		-1.06614e-08		0e-3
  0.5000		-1.94969e-08		-1.06684e-08		0e-3
  0.4000		-1.55468e-08		-1.03623e-08		0e-3
  0.3000		-1.90852e-08		-1.05318e-08		0e-3
  0.2000		-1.95137e-08		-9.53674e-09		0e-3
  0.1000		-1.94032e-08		-1.04690e-08		0e-3
  0.0000		-1.95966e-08		-1.06076e-08		0e-3
  -0.1000		-1.98653e-08		-1.05774e-08		0e-3
  -0.2000		-1.98065e-08		-1.06525e-08		0e-3
  -0.3000		-1.96050e-08		-1.06276e-08		0e-3
  -0.4000		-1.97538e-08		-1.05586e-08		0e-3
  -0.5000		-1.96807e-08		-1.06095e-08		0e-3
  -0.6000		-1.97893e-08		-1.05941e-08		0e-3
  -0.7000		-2.00188e-08		-1.05629e-08		0e-3
  -0.8000		-2.02314e-08		-1.05668e-08		0e-3
  -0.9000		-2.06801e-08		-1.05695e-08		0e-3
  -1.0000		-2.21757e-08		-1.05830e-08		0e-3
  -1.1000		-3.13408e-08		-1.05809e-08		0e-3
  -1.2000		-8.19087e-08		-1.05798e-08		0e-3
  -1.3000		-3.46354e-07		-1.05815e-08		0e-3
  -1.4000		-1.53717e-06		-1.06049e-08		0e-3
  -1.5000		-5.39970e-06		-1.06385e-08		0e-3
  -1.6000		-1.41138e-05		-1.05898e-08		0e-3
  -1.7000		-2.92786e-05		-1.05675e-08		0e-3
  -1.8000		-5.23448e-05		-1.05739e-08		0e-3
  -1.9000		-8.26120e-05		-1.05697e-08		0e-3
  -2.0000		-1.20747e-04		-1.07099e-08		0e-3
  -2.1000		-1.66988e-04		-1.05715e-08		0e-3
  -2.2000		-2.21193e-04		-1.05993e-08		0e-3
  -2.3000		-2.82907e-04		-1.06251e-08		0e-3
  -2.4000		-3.52240e-04		-1.05788e-08		0e-3
  -2.5000		-4.28510e-04		-1.06237e-08		0e-3
  -2.6000		-5.11086e-04		-1.06258e-08		0e-3
  -2.7000		-5.98943e-04		-1.05640e-08		0e-3
  -2.8000		-6.90317e-04		-1.06099e-08		0e-3
  -2.9000		-7.83885e-04		-1.06128e-08		0e-3
  -3.0000		-8.78096e-04		-1.06580e-08		0e-3
  -3.1000		-9.72223e-04		-1.06604e-08		0e-3
  -3.2000		-1.06574e-03		-1.06733e-08		0e-3
  -3.3000		-1.15807e-03		-1.06211e-08		0e-3
  -3.4000		-1.24907e-03		-1.06177e-08		0e-3
  -3.5000		-1.33896e-03		-1.06646e-08		0e-3
  -3.6000		-1.42723e-03		-1.06089e-08		0e-3
  -3.7000		-1.51407e-03		-1.06348e-08		0e-3
  -3.8000		-1.59930e-03		-1.06199e-08		0e-3
  -3.9000		-1.68341e-03		-1.06868e-08		0e-3
  -4.0000		-1.76610e-03		-1.07083e-08		0e-3
  -4.1000		-1.84735e-03		-1.06754e-08		0e-3
  -4.2000		-1.92727e-03		-1.06847e-08		0e-3
  -4.3000		-2.00589e-03		-1.06755e-08		0e-3
  -4.4000		-2.08317e-03		-1.06410e-08		0e-3
  -4.5000		-2.15908e-03		-1.06388e-08		0e-3
  -4.6000		-2.23383e-03		-1.05691e-08		0e-3
  -4.7000		-2.33022e-03		-1.06518e-08		0e-3
  -4.8000		-2.40242e-03		-1.06184e-08		0e-3
  -4.9000		-2.47529e-03		-1.07012e-08		0e-3
  -5.0000		-2.54959e-03		-1.06812e-08		0e-3
END_DB

BEGIN_DB
 ICCAP_VAR vd	-2.0300
 ICCAP_VAR vb	1.0000
 ICCAP_VAR ve	0
 ICCAP_VAR vs	0

 #vg              id              ig              ib
  1.0000		-2.32334e-08		-1.05337e-08		0e-3
  0.9000		-2.30923e-08		-1.05183e-08		0e-3
  0.8000		-2.31636e-08		-1.05096e-08		0e-3
  0.7000		-2.31925e-08		-1.05377e-08		0e-3
  0.6000		-2.31540e-08		-1.05680e-08		0e-3
  0.5000		-2.31894e-08		-1.05844e-08		0e-3
  0.4000		-2.31322e-08		-1.06162e-08		0e-3
  0.3000		-2.31041e-08		-1.06381e-08		0e-3
  0.2000		-2.30651e-08		-1.06241e-08		0e-3
  0.1000		-2.31755e-08		-1.06003e-08		0e-3
  0.0000		-2.32413e-08		-1.04814e-08		0e-3
  -0.1000		-2.32904e-08		-1.05437e-08		0e-3
  -0.2000		-2.34015e-08		-1.05457e-08		0e-3
  -0.3000		-2.34991e-08		-1.05811e-08		0e-3
  -0.4000		-2.34785e-08		-1.05842e-08		0e-3
  -0.5000		-2.34386e-08		-1.05922e-08		0e-3
  -0.6000		-2.35248e-08		-1.06294e-08		0e-3
  -0.7000		-2.35194e-08		-1.06479e-08		0e-3
  -0.8000		-2.39131e-08		-1.05873e-08		0e-3
  -0.9000		-2.43597e-08		-1.05510e-08		0e-3
  -1.0000		-2.61017e-08		-1.05883e-08		0e-3
  -1.1000		-3.59365e-08		-1.05349e-08		0e-3
  -1.2000		-9.02772e-08		-1.06200e-08		0e-3
  -1.3000		-3.72970e-07		-1.06500e-08		0e-3
  -1.4000		-1.63031e-06		-1.06794e-08		0e-3
  -1.5000		-5.65887e-06		-1.06279e-08		0e-3
  -1.6000		-1.46849e-05		-1.06108e-08		0e-3
  -1.7000		-3.03231e-05		-1.06403e-08		0e-3
  -1.8000		-5.40376e-05		-1.06159e-08		0e-3
  -1.9000		-8.52466e-05		-1.06295e-08		0e-3
  -2.0000		-1.24526e-04		-1.05702e-08		0e-3
  -2.1000		-1.72114e-04		-1.06200e-08		0e-3
  -2.2000		-2.27845e-04		-1.05965e-08		0e-3
  -2.3000		-2.91801e-04		-1.06008e-08		0e-3
  -2.4000		-3.63517e-04		-1.06567e-08		0e-3
  -2.5000		-4.43125e-04		-1.06677e-08		0e-3
  -2.6000		-5.30458e-04		-1.06192e-08		0e-3
  -2.7000		-6.25265e-04		-1.05793e-08		0e-3
  -2.8000		-7.27296e-04		-1.05445e-08		0e-3
  -2.9000		-8.36575e-04		-1.06084e-08		0e-3
  -3.0000		-9.52423e-04		-1.05922e-08		0e-3
  -3.1000		-1.07533e-03		-1.06332e-08		0e-3
  -3.2000		-1.20454e-03		-1.06490e-08		0e-3
  -3.3000		-1.33996e-03		-1.06823e-08		0e-3
  -3.4000		-1.48138e-03		-1.06431e-08		0e-3
  -3.5000		-1.62835e-03		-1.06201e-08		0e-3
  -3.6000		-1.78045e-03		-1.06800e-08		0e-3
  -3.7000		-1.93695e-03		-1.05981e-08		0e-3
  -3.8000		-2.09700e-03		-1.06177e-08		0e-3
  -3.9000		-2.25962e-03		-1.06639e-08		0e-3
  -4.0000		-2.42432e-03		-1.06343e-08		0e-3
  -4.1000		-2.58930e-03		-1.06252e-08		0e-3
  -4.2000		-2.75401e-03		-1.06876e-08		0e-3
  -4.3000		-2.91798e-03		-1.06169e-08		0e-3
  -4.4000		-3.08056e-03		-1.06425e-08		0e-3
  -4.5000		-3.24125e-03		-1.06337e-08		0e-3
  -4.6000		-3.40009e-03		-1.05778e-08		0e-3
  -4.7000		-3.55699e-03		-1.06528e-08		0e-3
  -4.8000		-3.71177e-03		-1.06316e-08		0e-3
  -4.9000		-3.86423e-03		-1.06612e-08		0e-3
  -5.0000		-4.01483e-03		-1.06558e-08		0e-3
END_DB

BEGIN_DB
 ICCAP_VAR vd	-3.0200
 ICCAP_VAR vb	1.0000
 ICCAP_VAR ve	0
 ICCAP_VAR vs	0

 #vg              id              ig              ib
  1.0000		-2.61585e-08		-1.05112e-08		0e-3
  0.9000		-2.60247e-08		-1.05630e-08		0e-3
  0.8000		-2.59539e-08		-1.05661e-08		0e-3
  0.7000		-2.60919e-08		-1.05411e-08		0e-3
  0.6000		-2.60144e-08		-1.05735e-08		0e-3
  0.5000		-2.60350e-08		-1.05956e-08		0e-3
  0.4000		-2.60078e-08		-1.06302e-08		0e-3
  0.3000		-2.59939e-08		-1.05653e-08		0e-3
  0.2000		-2.59191e-08		-1.06369e-08		0e-3
  0.1000		-2.59627e-08		-1.06373e-08		0e-3
  0.0000		-2.59891e-08		-1.05968e-08		0e-3
  -0.1000		-2.60552e-08		-1.05890e-08		0e-3
  -0.2000		-2.62213e-08		-1.05853e-08		0e-3
  -0.3000		-2.62390e-08		-1.05726e-08		0e-3
  -0.4000		-2.63026e-08		-1.06285e-08		0e-3
  -0.5000		-2.63220e-08		-1.06270e-08		0e-3
  -0.6000		-2.64288e-08		-1.06543e-08		0e-3
  -0.7000		-2.64940e-08		-1.06461e-08		0e-3
  -0.8000		-2.67372e-08		-1.05908e-08		0e-3
  -0.9000		-2.72489e-08		-1.06395e-08		0e-3
  -1.0000		-2.90293e-08		-1.05892e-08		0e-3
  -1.1000		-3.93404e-08		-1.06134e-08		0e-3
  -1.2000		-9.64260e-08		-1.05947e-08		0e-3
  -1.3000		-3.91713e-07		-1.06128e-08		0e-3
  -1.4000		-1.69755e-06		-1.06059e-08		0e-3
  -1.5000		-5.85175e-06		-1.06478e-08		0e-3
  -1.6000		-1.51043e-05		-1.06530e-08		0e-3
  -1.7000		-3.10968e-05		-1.06764e-08		0e-3
  -1.8000		-5.53489e-05		-1.06903e-08		0e-3
  -1.9000		-8.70824e-05		-1.06575e-08		0e-3
  -2.0000		-1.27184e-04		-1.06200e-08		0e-3
  -2.1000		-1.75655e-04		-1.06544e-08		0e-3
  -2.2000		-2.32494e-04		-1.06283e-08		0e-3
  -2.3000		-2.97630e-04		-1.06301e-08		0e-3
  -2.4000		-3.70920e-04		-1.06522e-08		0e-3
  -2.5000		-4.52244e-04		-1.06859e-08		0e-3
  -2.6000		-5.41198e-04		-1.06432e-08		0e-3
  -2.7000		-6.38104e-04		-1.07001e-08		0e-3
  -2.8000		-7.42471e-04		-1.06262e-08		0e-3
  -2.9000		-8.54337e-04		-1.06192e-08		0e-3
  -3.0000		-9.72974e-04		-1.06111e-08		0e-3
  -3.1000		-1.09895e-03		-1.05501e-08		0e-3
  -3.2000		-1.23163e-03		-1.06345e-08		0e-3
  -3.3000		-1.37113e-03		-1.06173e-08		0e-3
  -3.4000		-1.51700e-03		-1.06688e-08		0e-3
  -3.5000		-1.66968e-03		-1.06528e-08		0e-3
  -3.6000		-1.82817e-03		-1.06727e-08		0e-3
  -3.7000		-1.99280e-03		-1.06226e-08		0e-3
  -3.8000		-2.16326e-03		-1.05896e-08		0e-3
  -3.9000		-2.33923e-03		-1.05721e-08		0e-3
  -4.0000		-2.52119e-03		-1.05759e-08		0e-3
  -4.1000		-2.70840e-03		-1.06037e-08		0e-3
  -4.2000		-2.90053e-03		-1.06593e-08		0e-3
  -4.3000		-3.09796e-03		-1.06418e-08		0e-3
  -4.4000		-3.30014e-03		-1.06922e-08		0e-3
  -4.5000		-3.50647e-03		-1.06984e-08		0e-3
  -4.6000		-3.71708e-03		-1.06491e-08		0e-3
  -4.7000		-3.93122e-03		-1.06362e-08		0e-3
  -4.8000		-4.14851e-03		-1.06165e-08		0e-3
  -4.9000		-4.36785e-03		-1.06500e-08		0e-3
  -5.0000		-4.58914e-03		-1.06390e-08		0e-3
END_DB

BEGIN_DB
 ICCAP_VAR vd	-4.0100
 ICCAP_VAR vb	1.0000
 ICCAP_VAR ve	0
 ICCAP_VAR vs	0

 #vg              id              ig              ib
  1.0000		-2.92816e-08		-1.05565e-08		0e-3
  0.9000		-2.91039e-08		-1.06368e-08		0e-3
  0.8000		-2.88889e-08		-1.05988e-08		0e-3
  0.7000		-2.89831e-08		-1.05916e-08		0e-3
  0.6000		-2.89619e-08		-1.05782e-08		0e-3
  0.5000		-2.89925e-08		-1.05283e-08		0e-3
  0.4000		-2.90047e-08		-1.05592e-08		0e-3
  0.3000		-2.90333e-08		-1.04915e-08		0e-3
  0.2000		-2.89903e-08		-1.06326e-08		0e-3
  0.1000		-2.89295e-08		-1.06263e-08		0e-3
  0.0000		-2.89041e-08		-1.06593e-08		0e-3
  -0.1000		-2.89066e-08		-1.06540e-08		0e-3
  -0.2000		-2.89062e-08		-1.06249e-08		0e-3
  -0.3000		-2.90401e-08		-1.06497e-08		0e-3
  -0.4000		-2.92711e-08		-1.05973e-08		0e-3
  -0.5000		-2.92534e-08		-1.07135e-08		0e-3
  -0.6000		-2.91032e-08		-1.07626e-08		0e-3
  -0.7000		-2.91848e-08		-1.08416e-08		0e-3
  -0.8000		-2.93022e-08		-1.05133e-08		0e-3
  -0.9000		-2.99785e-08		-1.06270e-08		0e-3
  -1.0000		-3.17328e-08		-1.06595e-08		0e-3
  -1.1000		-4.25155e-08		-1.08635e-08		0e-3
  -1.2000		-1.02417e-07		-1.05536e-08		0e-3
  -1.3000		-4.09437e-07		-1.06184e-08		0e-3
  -1.4000		-1.75806e-06		-1.06099e-08		0e-3
  -1.5000		-6.01733e-06		-1.08269e-08		0e-3
  -1.6000		-1.54821e-05		-1.06362e-08		0e-3
  -1.7000		-3.17771e-05		-1.06857e-08		0e-3
  -1.8000		-5.64218e-05		-1.06735e-08		0e-3
  -1.9000		-8.86798e-05		-1.06584e-08		0e-3
  -2.0000		-1.29473e-04		-1.06618e-08		0e-3
  -2.1000		-1.78778e-04		-1.06472e-08		0e-3
  -2.2000		-2.36607e-04		-1.06069e-08		0e-3
  -2.3000		-3.02851e-04		-1.06746e-08		0e-3
  -2.4000		-3.77285e-04		-1.06488e-08		0e-3
  -2.5000		-4.59969e-04		-1.07470e-08		0e-3
  -2.6000		-5.50401e-04		-1.07125e-08		0e-3
  -2.7000		-6.48916e-04		-1.07129e-08		0e-3
  -2.8000		-7.55096e-04		-1.06903e-08		0e-3
  -2.9000		-8.68845e-04		-1.04990e-08		0e-3
  -3.0000		-9.89652e-04		-1.06581e-08		0e-3
  -3.1000		-1.11793e-03		-1.05728e-08		0e-3
  -3.2000		-1.25318e-03		-1.07172e-08		0e-3
  -3.3000		-1.39538e-03		-1.06173e-08		0e-3
  -3.4000		-1.54403e-03		-1.07238e-08		0e-3
  -3.5000		-1.69978e-03		-1.06816e-08		0e-3
  -3.6000		-1.86162e-03		-1.06285e-08		0e-3
  -3.7000		-2.02986e-03		-1.07707e-08		0e-3
  -3.8000		-2.20401e-03		-1.06399e-08		0e-3
  -3.9000		-2.38431e-03		-1.06148e-08		0e-3
  -4.0000		-2.57037e-03		-1.05302e-08		0e-3
  -4.1000		-2.76220e-03		-1.06332e-08		0e-3
  -4.2000		-2.95982e-03		-1.06475e-08		0e-3
  -4.3000		-3.16297e-03		-1.06822e-08		0e-3
  -4.4000		-3.37154e-03		-1.06739e-08		0e-3
  -4.5000		-3.58506e-03		-1.06614e-08		0e-3
  -4.6000		-3.80391e-03		-1.06257e-08		0e-3
  -4.7000		-4.02803e-03		-1.06250e-08		0e-3
  -4.8000		-4.25655e-03		-1.05983e-08		0e-3
  -4.9000		-4.48973e-03		-1.07238e-08		0e-3
  -5.0000		-4.72761e-03		-1.06111e-08		0e-3
END_DB

BEGIN_DB
 ICCAP_VAR vd	-5.0000
 ICCAP_VAR vb	1.0000
 ICCAP_VAR ve	0
 ICCAP_VAR vs	0

 #vg              id              ig              ib
  1.0000		-3.26724e-08		-1.04872e-08		0e-3
  0.9000		-3.22126e-08		-1.05742e-08		0e-3
  0.8000		-3.18986e-08		-1.06671e-08		0e-3
  0.7000		-3.18567e-08		-1.06164e-08		0e-3
  0.6000		-3.17943e-08		-1.05525e-08		0e-3
  0.5000		-3.21801e-08		-1.05654e-08		0e-3
  0.4000		-3.19265e-08		-1.05146e-08		0e-3
  0.3000		-3.19462e-08		-1.05848e-08		0e-3
  0.2000		-3.20649e-08		-1.05714e-08		0e-3
  0.1000		-3.19822e-08		-1.06362e-08		0e-3
  0.0000		-3.16565e-08		-1.06678e-08		0e-3
  -0.1000		-3.18218e-08		-1.05824e-08		0e-3
  -0.2000		-3.18407e-08		-1.05765e-08		0e-3
  -0.3000		-3.17242e-08		-1.05809e-08		0e-3
  -0.4000		-3.18508e-08		-1.05429e-08		0e-3
  -0.5000		-3.21366e-08		-1.05269e-08		0e-3
  -0.6000		-3.20618e-08		-1.06014e-08		0e-3
  -0.7000		-3.22367e-08		-1.06524e-08		0e-3
  -0.8000		-3.24990e-08		-1.06720e-08		0e-3
  -0.9000		-3.30198e-08		-1.06772e-08		0e-3
  -1.0000		-3.46946e-08		-1.06190e-08		0e-3
  -1.1000		-4.59064e-08		-1.06102e-08		0e-3
  -1.2000		-1.08001e-07		-1.05951e-08		0e-3
  -1.3000		-4.27017e-07		-1.05785e-08		0e-3
  -1.4000		-1.82090e-06		-1.05419e-08		0e-3
  -1.5000		-6.19423e-06		-1.05425e-08		0e-3
  -1.6000		-1.58503e-05		-1.05753e-08		0e-3
  -1.7000		-3.24560e-05		-1.06703e-08		0e-3
  -1.8000		-5.76973e-05		-1.05931e-08		0e-3
  -1.9000		-9.04441e-05		-1.05777e-08		0e-3
  -2.0000		-1.31834e-04		-1.06310e-08		0e-3
  -2.1000		-1.81878e-04		-1.06184e-08		0e-3
  -2.2000		-2.40541e-04		-1.06342e-08		0e-3
  -2.3000		-3.07691e-04		-1.06362e-08		0e-3
  -2.4000		-3.83222e-04		-1.05845e-08		0e-3
  -2.5000		-4.67050e-04		-1.05784e-08		0e-3
  -2.6000		-5.58925e-04		-1.05723e-08		0e-3
  -2.7000		-6.58917e-04		-1.06066e-08		0e-3
  -2.8000		-7.66611e-04		-1.06432e-08		0e-3
  -2.9000		-8.81934e-04		-1.06860e-08		0e-3
  -3.0000		-1.00467e-03		-1.06713e-08		0e-3
  -3.1000		-1.13490e-03		-1.06672e-08		0e-3
  -3.2000		-1.27221e-03		-1.06370e-08		0e-3
  -3.3000		-1.41654e-03		-1.05954e-08		0e-3
  -3.4000		-1.56753e-03		-1.05237e-08		0e-3
  -3.5000		-1.72565e-03		-1.06083e-08		0e-3
  -3.6000		-1.89021e-03		-1.06157e-08		0e-3
  -3.7000		-2.06118e-03		-1.06438e-08		0e-3
  -3.8000		-2.23831e-03		-1.06288e-08		0e-3
  -3.9000		-2.42153e-03		-1.06280e-08		0e-3
  -4.0000		-2.61104e-03		-1.06283e-08		0e-3
  -4.1000		-2.80617e-03		-1.06132e-08		0e-3
  -4.2000		-3.00730e-03		-1.05581e-08		0e-3
  -4.3000		-3.21413e-03		-1.05839e-08		0e-3
  -4.4000		-3.42666e-03		-1.06095e-08		0e-3
  -4.5000		-3.64445e-03		-1.06777e-08		0e-3
  -4.6000		-3.86763e-03		-1.06126e-08		0e-3
  -4.7000		-4.09601e-03		-1.06266e-08		0e-3
  -4.8000		-4.32972e-03		-1.06245e-08		0e-3
  -4.9000		-4.56803e-03		-1.05729e-08		0e-3
  -5.0000		-4.81195e-03		-1.05762e-08		0e-3
END_DB