! VERSION = 6.00
BEGIN_HEADER
 ICCAP_INPUTS
  vg         V  G GROUND SMU2 1E-005 LIN        1    1          -5          61   -0.1       
  vb         V  B GROUND SMU4 0.01 LIN        2    -1          -1         1    -1        
  vd         V  D GROUND SMU1 0.1 LIN        3    -0.05       -5          6    -0.99      
  vs         V  S GROUND SMU3 0.1 CON        0
  ve         V  E GROUND SMU5 0.1 CON        0
 ICCAP_OUTPUTS
  id         I  D GROUND SMU1 B
  ib         I  D GROUND SMU4 B
  ig         I  D GROUND SMU2 B
END_HEADER


BEGIN_DB
 ICCAP_VAR vd	-0.0500
 ICCAP_VAR vb	1.0000
 ICCAP_VAR ve	0
 ICCAP_VAR vs	0

 #vg              id              ig              ib
  1.0000		-7.41720e-10		-9.39333e-09		0e-3
  0.9000		-6.53148e-10		-9.85801e-09		0e-3
  0.8000		-4.66943e-10		-9.81760e-09		0e-3
  0.7000		-4.02212e-10		-1.01438e-08		0e-3
  0.6000		-4.23074e-10		-1.01798e-08		0e-3
  0.5000		-3.78132e-10		-1.03186e-08		0e-3
  0.4000		-3.64900e-10		-1.12770e-08		0e-3
  0.3000		-3.26514e-10		-1.02850e-08		0e-3
  0.2000		-2.44975e-10		-1.09206e-08		0e-3
  0.1000		-2.62618e-10		-1.09059e-08		0e-3
  0.0000		-4.98652e-10		-9.72521e-09		0e-3
  -0.1000		-4.06265e-10		-1.01730e-08		0e-3
  -0.2000		-3.93629e-10		-1.06205e-08		0e-3
  -0.3000		-3.71695e-10		-1.07937e-08		0e-3
  -0.4000		-3.73840e-10		-1.15674e-08		0e-3
  -0.5000		-2.52485e-10		-1.16980e-08		0e-3
  -0.6000		-3.11851e-10		-1.02612e-08		0e-3
  -0.7000		-3.53694e-10		-1.18064e-08		0e-3
  -0.8000		-3.06726e-10		-1.14689e-08		0e-3
  -0.9000		-3.93867e-10		-1.02421e-08		0e-3
  -1.0000		-4.81129e-10		-1.14248e-08		0e-3
  -1.1000		-4.47989e-10		-1.13662e-08		0e-3
  -1.2000		-8.84056e-10		-1.19766e-08		0e-3
  -1.3000		-5.29039e-09		-1.30618e-08		0e-3
  -1.4000		-4.85284e-08		-1.14222e-08		0e-3
  -1.5000		-4.11547e-07		-9.39834e-09		0e-3
  -1.6000		-2.17844e-06		-1.00199e-08		0e-3
  -1.7000		-6.18911e-06		-9.51385e-09		0e-3
  -1.8000		-1.17497e-05		-1.16334e-08		0e-3
  -1.9000		-1.80433e-05		-1.28934e-08		0e-3
  -2.0000		-2.46387e-05		-1.20186e-08		0e-3
  -2.1000		-3.13315e-05		-1.22738e-08		0e-3
  -2.2000		-3.80230e-05		-1.21908e-08		0e-3
  -2.3000		-4.46393e-05		-1.19168e-08		0e-3
  -2.4000		-5.13911e-05		-1.21988e-08		0e-3
  -2.5000		-5.79357e-05		-1.14352e-08		0e-3
  -2.6000		-6.41823e-05		-1.05776e-08		0e-3
  -2.7000		-7.04408e-05		-1.00240e-08		0e-3
  -2.8000		-7.65681e-05		-1.24818e-08		0e-3
  -2.9000		-8.25286e-05		-1.19349e-08		0e-3
  -3.0000		-8.83937e-05		-1.25266e-08		0e-3
  -3.1000		-9.42588e-05		-1.22889e-08		0e-3
  -3.2000		-9.99212e-05		-1.07801e-08		0e-3
  -3.3000		-1.05572e-04		-1.01699e-08		0e-3
  -3.4000		-1.11067e-04		-5.73015e-09		0e-3
  -3.5000		-1.16551e-04		-1.33673e-08		0e-3
  -3.6000		-1.21915e-04		-1.20653e-08		0e-3
  -3.7000		-1.27161e-04		-1.14305e-08		0e-3
  -3.8000		-1.32465e-04		-1.45246e-08		0e-3
  -3.9000		-1.37544e-04		-1.30684e-08		0e-3
  -4.0000		-1.42634e-04		-1.25704e-08		0e-3
  -4.1000		-1.47581e-04		-1.44911e-08		0e-3
  -4.2000		-1.52445e-04		-1.27218e-08		0e-3
  -4.3000		-1.57344e-04		-1.22203e-08		0e-3
  -4.4000		-1.62172e-04		-1.30221e-08		0e-3
  -4.5000		-1.66893e-04		-1.20527e-08		0e-3
  -4.6000		-1.71614e-04		-1.40115e-08		0e-3
  -4.7000		-1.76299e-04		-1.24980e-08		0e-3
  -4.8000		-1.80817e-04		-1.42328e-08		0e-3
  -4.9000		-1.85394e-04		-1.22222e-08		0e-3
  -5.0000		-1.89817e-04		-9.28044e-09		0e-3
END_DB

BEGIN_DB
 ICCAP_VAR vd	-1.0400
 ICCAP_VAR vb	1.0000
 ICCAP_VAR ve	0
 ICCAP_VAR vs	0

 #vg              id              ig              ib
  1.0000		-7.67827e-10		-4.56333e-09		0e-3
  0.9000		-7.56502e-10		-5.44239e-09		0e-3
  0.8000		-7.83324e-10		-7.05910e-09		0e-3
  0.7000		-7.62701e-10		-6.60694e-09		0e-3
  0.6000		-7.42197e-10		-6.56772e-09		0e-3
  0.5000		-7.07269e-10		-1.04995e-08		0e-3
  0.4000		-5.91040e-10		-9.03070e-09		0e-3
  0.3000		-7.10726e-10		-9.81450e-09		0e-3
  0.2000		-6.00338e-10		-9.53746e-09		0e-3
  0.1000		-6.10471e-10		-1.01442e-08		0e-3
  0.0000		-7.21335e-10		-9.29785e-09		0e-3
  -0.1000		-6.67930e-10		-9.63080e-09		0e-3
  -0.2000		-6.95229e-10		-1.00812e-08		0e-3
  -0.3000		-8.18968e-10		-1.04406e-08		0e-3
  -0.4000		-6.63400e-10		-1.02263e-08		0e-3
  -0.5000		-6.36697e-10		-1.01552e-08		0e-3
  -0.6000		-7.11918e-10		-9.24611e-09		0e-3
  -0.7000		-6.48618e-10		-9.47773e-09		0e-3
  -0.8000		-6.41465e-10		-1.07350e-08		0e-3
  -0.9000		-8.46863e-10		-1.02527e-08		0e-3
  -1.0000		-7.58410e-10		-1.00783e-08		0e-3
  -1.1000		-7.79390e-10		-9.19175e-09		0e-3
  -1.2000		-1.78981e-09		-8.51786e-09		0e-3
  -1.3000		-9.71341e-09		-1.04238e-08		0e-3
  -1.4000		-8.52704e-08		-1.15498e-08		0e-3
  -1.5000		-7.05719e-07		-1.07712e-08		0e-3
  -1.6000		-3.95653e-06		-1.09857e-08		0e-3
  -1.7000		-1.34580e-05		-1.07714e-08		0e-3
  -1.8000		-3.17020e-05		-1.04382e-08		0e-3
  -1.9000		-6.12736e-05		-1.29174e-08		0e-3
  -2.0000		-1.00970e-04		-1.10940e-08		0e-3
  -2.1000		-1.51694e-04		-1.11563e-08		0e-3
  -2.2000		-2.13277e-04		-1.17842e-08		0e-3
  -2.3000		-2.85351e-04		-1.06524e-08		0e-3
  -2.4000		-3.67784e-04		-1.15243e-08		0e-3
  -2.5000		-4.60160e-04		-1.14266e-08		0e-3
  -2.6000		-5.61738e-04		-1.09212e-08		0e-3
  -2.7000		-6.71899e-04		-1.13558e-08		0e-3
  -2.8000		-7.89118e-04		-1.16642e-08		0e-3
  -2.9000		-9.11319e-04		-1.16018e-08		0e-3
  -3.0000		-1.03661e-03		-1.15467e-08		0e-3
  -3.1000		-1.16301e-03		-1.24459e-08		0e-3
  -3.2000		-1.28930e-03		-1.17754e-08		0e-3
  -3.3000		-1.41475e-03		-1.15784e-08		0e-3
  -3.4000		-1.53862e-03		-1.16607e-08		0e-3
  -3.5000		-1.66118e-03		-1.14332e-08		0e-3
  -3.6000		-1.78176e-03		-1.21630e-08		0e-3
  -3.7000		-1.90070e-03		-1.18266e-08		0e-3
  -3.8000		-2.01763e-03		-1.18947e-08		0e-3
  -3.9000		-2.13296e-03		-1.17846e-08		0e-3
  -4.0000		-2.24646e-03		-1.19101e-08		0e-3
  -4.1000		-2.35842e-03		-1.19951e-08		0e-3
  -4.2000		-2.46873e-03		-1.16845e-08		0e-3
  -4.3000		-2.57757e-03		-1.19855e-08		0e-3
  -4.4000		-2.68482e-03		-1.22751e-08		0e-3
  -4.5000		-2.79043e-03		-1.21359e-08		0e-3
  -4.6000		-2.89481e-03		-1.19617e-08		0e-3
  -4.7000		-2.99777e-03		-1.20429e-08		0e-3
  -4.8000		-3.09933e-03		-1.23261e-08		0e-3
  -4.9000		-3.19949e-03		-1.22584e-08		0e-3
  -5.0000		-3.29856e-03		-1.25630e-08		0e-3
END_DB

BEGIN_DB
 ICCAP_VAR vd	-2.0300
 ICCAP_VAR vb	1.0000
 ICCAP_VAR ve	0
 ICCAP_VAR vs	0

 #vg              id              ig              ib
  1.0000		-9.22322e-10		-2.59824e-09		0e-3
  0.9000		-7.76768e-10		-5.32995e-09		0e-3
  0.8000		-7.55429e-10		-6.59168e-09		0e-3
  0.7000		-9.31501e-10		-7.39479e-09		0e-3
  0.6000		-8.31723e-10		-7.64263e-09		0e-3
  0.5000		-9.14931e-10		-7.83932e-09		0e-3
  0.4000		-8.91328e-10		-8.22139e-09		0e-3
  0.3000		-7.59840e-10		-8.73208e-09		0e-3
  0.2000		-7.33376e-10		-8.83615e-09		0e-3
  0.1000		-6.86884e-10		-9.00829e-09		0e-3
  0.0000		-8.41379e-10		-9.31108e-09		0e-3
  -0.1000		-7.16805e-10		-9.23598e-09		0e-3
  -0.2000		-7.86185e-10		-9.34696e-09		0e-3
  -0.3000		-8.12054e-10		-9.40633e-09		0e-3
  -0.4000		-8.10385e-10		-9.45127e-09		0e-3
  -0.5000		-8.31962e-10		-9.62687e-09		0e-3
  -0.6000		-7.51615e-10		-9.65929e-09		0e-3
  -0.7000		-7.71523e-10		-9.85551e-09		0e-3
  -0.8000		-7.44581e-10		-1.00664e-08		0e-3
  -0.9000		-7.57098e-10		-1.18819e-08		0e-3
  -1.0000		-7.78794e-10		-1.03369e-08		0e-3
  -1.1000		-9.52721e-10		-1.00906e-08		0e-3
  -1.2000		-1.79911e-09		-1.02199e-08		0e-3
  -1.3000		-1.07260e-08		-1.03163e-08		0e-3
  -1.4000		-9.26363e-08		-1.01483e-08		0e-3
  -1.5000		-7.57050e-07		-1.02255e-08		0e-3
  -1.6000		-4.17945e-06		-1.02673e-08		0e-3
  -1.7000		-1.40584e-05		-1.08023e-08		0e-3
  -1.8000		-3.32116e-05		-1.07461e-08		0e-3
  -1.9000		-6.34074e-05		-1.08900e-08		0e-3
  -2.0000		-1.04284e-04		-1.24232e-08		0e-3
  -2.1000		-1.55973e-04		-1.01080e-08		0e-3
  -2.2000		-2.19536e-04		-8.40735e-09		0e-3
  -2.3000		-2.93934e-04		-9.86266e-09		0e-3
  -2.4000		-3.79252e-04		-1.12882e-08		0e-3
  -2.5000		-4.75001e-04		-1.10668e-08		0e-3
  -2.6000		-5.80823e-04		-1.05124e-08		0e-3
  -2.7000		-6.96886e-04		-1.10830e-08		0e-3
  -2.8000		-8.22484e-04		-1.14446e-08		0e-3
  -2.9000		-9.57537e-04		-1.11886e-08		0e-3
  -3.0000		-1.10147e-03		-1.08887e-08		0e-3
  -3.1000		-1.25451e-03		-1.05305e-08		0e-3
  -3.2000		-1.41590e-03		-1.12581e-08		0e-3
  -3.3000		-1.58551e-03		-1.06108e-08		0e-3
  -3.4000		-1.76277e-03		-1.46893e-08		0e-3
  -3.5000		-1.94788e-03		-9.78982e-09		0e-3
  -3.6000		-2.14019e-03		-7.20847e-09		0e-3
  -3.7000		-2.33897e-03		-1.10488e-08		0e-3
  -3.8000		-2.54338e-03		-1.11825e-08		0e-3
  -3.9000		-2.75319e-03		-1.19237e-08		0e-3
  -4.0000		-2.96683e-03		-1.41126e-08		0e-3
  -4.1000		-3.18296e-03		-1.18642e-08		0e-3
  -4.2000		-3.40092e-03		-1.04157e-08		0e-3
  -4.3000		-3.61892e-03		-9.91797e-09		0e-3
  -4.4000		-3.83641e-03		-1.12621e-08		0e-3
  -4.5000		-4.05216e-03		-1.20869e-08		0e-3
  -4.6000		-4.26631e-03		-1.07938e-08		0e-3
  -4.7000		-4.47834e-03		-1.23062e-08		0e-3
  -4.8000		-4.68826e-03		-1.07646e-08		0e-3
  -4.9000		-4.89515e-03		-1.16906e-08		0e-3
  -5.0000		-4.99189e-03		-1.19612e-08		0e-3
END_DB

BEGIN_DB
 ICCAP_VAR vd	-3.0200
 ICCAP_VAR vb	1.0000
 ICCAP_VAR ve	0
 ICCAP_VAR vs	0

 #vg              id              ig              ib
  1.0000		-9.44495e-10		-3.05072e-09		0e-3
  0.9000		-9.13024e-10		-5.31327e-09		0e-3
  0.8000		-8.79169e-10		-5.46461e-09		0e-3
  0.7000		-8.19445e-10		-8.95298e-09		0e-3
  0.6000		-9.09805e-10		-7.32398e-09		0e-3
  0.5000		-9.55820e-10		-7.98249e-09		0e-3
  0.4000		-9.44138e-10		-8.59070e-09		0e-3
  0.3000		-7.15494e-10		-8.16894e-09		0e-3
  0.2000		-1.02222e-09		-7.97725e-09		0e-3
  0.1000		-8.63790e-10		-8.69417e-09		0e-3
  0.0000		-7.29084e-10		-8.72755e-09		0e-3
  -0.1000		-8.31246e-10		-7.83062e-09		0e-3
  -0.2000		-8.33035e-10		-8.92258e-09		0e-3
  -0.3000		-9.04560e-10		-8.74126e-09		0e-3
  -0.4000		-9.02534e-10		-8.98027e-09		0e-3
  -0.5000		-1.00553e-09		-9.49442e-09		0e-3
  -0.6000		-9.42826e-10		-8.65316e-09		0e-3
  -0.7000		-8.70943e-10		-8.80885e-09		0e-3
  -0.8000		-8.97884e-10		-8.48234e-09		0e-3
  -0.9000		-8.30054e-10		-9.89068e-09		0e-3
  -1.0000		-8.13127e-10		-7.25627e-09		0e-3
  -1.1000		-9.80616e-10		-7.81333e-09		0e-3
  -1.2000		-2.06554e-09		-1.24370e-08		0e-3
  -1.3000		-1.15970e-08		-1.42367e-08		0e-3
  -1.4000		-9.93454e-08		-1.27728e-08		0e-3
  -1.5000		-8.01861e-07		-1.04436e-08		0e-3
  -1.6000		-4.37559e-06		-1.05468e-08		0e-3
  -1.7000		-1.45756e-05		-1.04610e-08		0e-3
  -1.8000		-3.42249e-05		-1.18582e-08		0e-3
  -1.9000		-6.51717e-05		-9.77337e-09		0e-3
  -2.0000		-1.06943e-04		-1.03087e-08		0e-3
  -2.1000		-1.60253e-04		-9.71603e-09		0e-3
  -2.2000		-2.25019e-04		-1.05559e-08		0e-3
  -2.3000		-3.00860e-04		-1.03672e-08		0e-3
  -2.4000		-3.87812e-04		-1.08942e-08		0e-3
  -2.5000		-4.85468e-04		-1.07888e-08		0e-3
  -2.6000		-5.93555e-04		-1.08908e-08		0e-3
  -2.7000		-7.12013e-04		-1.21981e-08		0e-3
  -2.8000		-8.40366e-04		-1.10512e-08		0e-3
  -2.9000		-9.78386e-04		-1.09320e-08		0e-3
  -3.0000		-1.12572e-03		-1.11246e-08		0e-3
  -3.1000		-1.28230e-03		-1.12820e-08		0e-3
  -3.2000		-1.44801e-03		-1.06163e-08		0e-3
  -3.3000		-1.62221e-03		-1.11253e-08		0e-3
  -3.4000		-1.80466e-03		-1.09426e-08		0e-3
  -3.5000		-1.99575e-03		-1.08329e-08		0e-3
  -3.6000		-2.19460e-03		-1.11321e-08		0e-3
  -3.7000		-2.40132e-03		-1.13879e-08		0e-3
  -3.8000		-2.61532e-03		-1.11766e-08		0e-3
  -3.9000		-2.83610e-03		-1.18175e-08		0e-3
  -4.0000		-3.06499e-03		-1.24079e-08		0e-3
  -4.1000		-3.30051e-03		-1.08386e-08		0e-3
  -4.2000		-3.54267e-03		-1.38760e-08		0e-3
  -4.3000		-3.79148e-03		-1.07331e-08		0e-3
  -4.4000		-4.04646e-03		-1.21671e-08		0e-3
  -4.5000		-4.30703e-03		-1.11362e-08		0e-3
  -4.6000		-4.57344e-03		-1.14762e-08		0e-3
  -4.7000		-4.84520e-03		-1.10728e-08		0e-3
  -4.8000		-5.00977e-03		-1.12426e-08		0e-3
  -4.9000		-5.28574e-03		-1.18990e-08		0e-3
  -5.0000		-5.56612e-03		-1.09154e-08		0e-3
END_DB

BEGIN_DB
 ICCAP_VAR vd	-4.0100
 ICCAP_VAR vb	1.0000
 ICCAP_VAR ve	0
 ICCAP_VAR vs	0

 #vg              id              ig              ib
  1.0000		-1.30653e-09		-2.13561e-09		0e-3
  0.9000		-1.35303e-09		-8.75783e-09		0e-3
  0.8000		-1.19090e-09		-5.59723e-09		0e-3
  0.7000		-1.14918e-09		-8.05974e-09		0e-3
  0.6000		-1.15871e-09		-8.60572e-10		0e-3
  0.5000		-1.06454e-09		-8.98480e-09		0e-3
  0.4000		-1.10030e-09		-8.00180e-09		0e-3
  0.3000		-1.08957e-09		-9.27091e-09		0e-3
  0.2000		-1.13368e-09		-7.36499e-09		0e-3
  0.1000		-1.18971e-09		-1.02266e-08		0e-3
  0.0000		-1.16229e-09		-9.57131e-09		0e-3
  -0.1000		-1.10865e-09		-9.41515e-09		0e-3
  -0.2000		-1.09553e-09		-9.17733e-09		0e-3
  -0.3000		-1.10507e-09		-9.13799e-09		0e-3
  -0.4000		-1.05619e-09		-9.90903e-09		0e-3
  -0.5000		-1.04070e-09		-9.82356e-09		0e-3
  -0.6000		-1.08123e-09		-1.01409e-08		0e-3
  -0.7000		-1.16110e-09		-1.00403e-08		0e-3
  -0.8000		-1.18375e-09		-1.01228e-08		0e-3
  -0.9000		-1.16467e-09		-9.39596e-09		0e-3
  -1.0000		-1.10984e-09		-1.04851e-08		0e-3
  -1.1000		-1.21951e-09		-1.03399e-08		0e-3
  -1.2000		-2.26259e-09		-1.02185e-08		0e-3
  -1.3000		-1.24395e-08		-9.45687e-09		0e-3
  -1.4000		-1.05871e-07		-9.97019e-09		0e-3
  -1.5000		-8.45957e-07		-1.02847e-08		0e-3
  -1.6000		-4.56090e-06		-9.08363e-09		0e-3
  -1.7000		-1.50809e-05		-1.02856e-08		0e-3
  -1.8000		-3.52516e-05		-1.00828e-08		0e-3
  -1.9000		-6.69599e-05		-1.03490e-08		0e-3
  -2.0000		-1.09625e-04		-1.04855e-08		0e-3
  -2.1000		-1.64056e-04		-1.05240e-08		0e-3
  -2.2000		-2.29955e-04		-1.03517e-08		0e-3
  -2.3000		-3.07298e-04		-1.05691e-08		0e-3
  -2.4000		-3.95763e-04		-1.04716e-08		0e-3
  -2.5000		-4.95124e-04		-1.04451e-08		0e-3
  -2.6000		-6.04963e-04		-9.73499e-09		0e-3
  -2.7000		-7.25329e-04		-1.06438e-08		0e-3
  -2.8000		-8.55660e-04		-1.05865e-08		0e-3
  -2.9000		-9.96113e-04		-1.07796e-08		0e-3
  -3.0000		-1.14585e-03		-1.10099e-08		0e-3
  -3.1000		-1.30515e-03		-1.07751e-08		0e-3
  -3.2000		-1.47353e-03		-1.04803e-08		0e-3
  -3.3000		-1.65092e-03		-1.20089e-08		0e-3
  -3.4000		-1.83696e-03		-1.10477e-08		0e-3
  -3.5000		-2.03130e-03		-1.07580e-08		0e-3
  -3.6000		-2.23407e-03		-1.07247e-08		0e-3
  -3.7000		-2.44503e-03		-1.26435e-08		0e-3
  -3.8000		-2.66340e-03		-1.04078e-08		0e-3
  -3.9000		-2.88960e-03		-1.05450e-08		0e-3
  -4.0000		-3.12327e-03		-1.04885e-08		0e-3
  -4.1000		-3.36424e-03		-1.08763e-08		0e-3
  -4.2000		-3.61213e-03		-1.08258e-08		0e-3
  -4.3000		-3.86750e-03		-1.12207e-08		0e-3
  -4.4000		-4.12935e-03		-1.08367e-08		0e-3
  -4.5000		-4.39732e-03		-1.08322e-08		0e-3
  -4.6000		-4.67205e-03		-1.07765e-08		0e-3
  -4.7000		-4.95309e-03		-1.08368e-08		0e-3
  -4.8000		-5.10871e-03		-1.08798e-08		0e-3
  -4.9000		-5.39660e-03		-1.08805e-08		0e-3
  -5.0000		-5.71012e-03		-1.11804e-08		0e-3
END_DB

BEGIN_DB
 ICCAP_VAR vd	-5.0000
 ICCAP_VAR vb	1.0000
 ICCAP_VAR ve	0
 ICCAP_VAR vs	0

 #vg              id              ig              ib
  1.0000		-1.16789e-09		2.78997e-10		0e-3
  0.9000		-1.45555e-09		-8.09860e-09		0e-3
  0.8000		-1.38605e-09		-1.58894e-09		0e-3
  0.7000		-1.29223e-09		-5.81551e-09		0e-3
  0.6000		-1.23167e-09		-9.50563e-09		0e-3
  0.5000		-1.16873e-09		-9.42242e-09		0e-3
  0.4000		-1.04022e-09		-9.50027e-09		0e-3
  0.3000		-1.26028e-09		-9.73237e-09		0e-3
  0.2000		-1.05107e-09		-9.41908e-09		0e-3
  0.1000		-1.15514e-09		-9.42004e-09		0e-3
  0.0000		-1.26195e-09		-7.46298e-09		0e-3
  -0.1000		-1.19269e-09		-9.26638e-09		0e-3
  -0.2000		-1.23644e-09		-8.12423e-09		0e-3
  -0.3000		-1.09792e-09		-9.86397e-09		0e-3
  -0.4000		-1.14870e-09		-9.56869e-09		0e-3
  -0.5000		-1.19686e-09		-9.07087e-09		0e-3
  -0.6000		-1.03033e-09		-9.37080e-09		0e-3
  -0.7000		-8.78692e-10		-9.34064e-09		0e-3
  -0.8000		-1.05643e-09		-9.30631e-09		0e-3
  -0.9000		-1.19841e-09		-8.54170e-09		0e-3
  -1.0000		-9.29952e-10		-8.13675e-09		0e-3
  -1.1000		-1.35982e-09		-1.02950e-08		0e-3
  -1.2000		-2.42102e-09		-1.01259e-08		0e-3
  -1.3000		-1.31813e-08		-1.01287e-08		0e-3
  -1.4000		-1.11789e-07		-1.00961e-08		0e-3
  -1.5000		-8.88026e-07		-9.88281e-09		0e-3
  -1.6000		-4.76576e-06		-9.51719e-09		0e-3
  -1.7000		-1.57480e-05		-1.03421e-08		0e-3
  -1.8000		-3.68875e-05		-1.03568e-08		0e-3
  -1.9000		-7.01070e-05		-1.02770e-08		0e-3
  -2.0000		-1.14822e-04		-1.01206e-08		0e-3
  -2.1000		-1.71566e-04		-9.80508e-09		0e-3
  -2.2000		-2.39909e-04		-1.02619e-08		0e-3
  -2.3000		-3.19910e-04		-8.56030e-09		0e-3
  -2.4000		-4.11105e-04		-1.04482e-08		0e-3
  -2.5000		-5.13208e-04		-1.03272e-08		0e-3
  -2.6000		-6.25801e-04		-1.02624e-08		0e-3
  -2.7000		-7.48777e-04		-1.05269e-08		0e-3
  -2.8000		-8.81708e-04		-1.05429e-08		0e-3
  -2.9000		-1.02425e-03		-1.04768e-08		0e-3
  -3.0000		-1.17626e-03		-1.03198e-08		0e-3
  -3.1000		-1.33773e-03		-1.04902e-08		0e-3
  -3.2000		-1.50816e-03		-1.01888e-08		0e-3
  -3.3000		-1.68757e-03		-1.01790e-08		0e-3
  -3.4000		-1.87517e-03		-1.05715e-08		0e-3
  -3.5000		-2.07179e-03		-1.06534e-08		0e-3
  -3.6000		-2.27649e-03		-1.06432e-08		0e-3
  -3.7000		-2.48970e-03		-1.05600e-08		0e-3
  -3.8000		-2.71065e-03		-1.06192e-08		0e-3
  -3.9000		-2.93963e-03		-1.05700e-08		0e-3
  -4.0000		-3.17615e-03		-1.06629e-08		0e-3
  -4.1000		-3.42033e-03		-1.11676e-08		0e-3
  -4.2000		-3.67194e-03		-1.08168e-08		0e-3
  -4.3000		-3.93089e-03		-1.07044e-08		0e-3
  -4.4000		-4.19691e-03		-1.07279e-08		0e-3
  -4.5000		-4.46942e-03		-1.13001e-08		0e-3
  -4.6000		-4.74907e-03		-1.06515e-08		0e-3
  -4.7000		-4.90391e-03		-1.08366e-08		0e-3
  -4.8000		-5.19061e-03		-1.07155e-08		0e-3
  -4.9000		-5.50103e-03		-1.10629e-08		0e-3
  -5.0000		-5.77867e-03		-1.05753e-08		0e-3
END_DB