! VERSION = 6.00
BEGIN_HEADER
 ICCAP_INPUTS
  vg         V  G GROUND SMU2 1E-005 LIN	2	0	5	26	0.2
  vb         V  B GROUND SMU4 0.01 LIN	3	1         1         1    1        
  vd         V  D GROUND SMU1 0.1 LIN	1	0          5          26   0.2       
  vs         V  S GROUND SMU3 0.1 CON        0
  ve         V  E GROUND SMU5 0.1 CON        0
 ICCAP_OUTPUTS
  id         I  D GROUND SMU1 B
  ib         I  D GROUND SMU4 B
  ig         I  D GROUND SMU2 B
END_HEADER


BEGIN_DB
 ICCAP_VAR vb	1.0000
 ICCAP_VAR vg	0.0000
 ICCAP_VAR ve	0
 ICCAP_VAR vs	0

 #vd              id              ib              ig
  0.0000		8.04663e-11		0e-3		-1.07200e-08
  0.2000		1.30594e-09		0e-3		-1.06956e-08
  0.4000		2.00379e-09		0e-3		-1.09494e-08
  0.6000		1.72877e-09		0e-3		-1.04470e-08
  0.8000		2.48337e-09		0e-3		-1.06325e-08
  1.0000		2.44164e-09		0e-3		-1.06678e-08
  1.2000		2.75064e-09		0e-3		-1.09413e-08
  1.4000		3.16715e-09		0e-3		-1.07675e-08
  1.6000		2.88785e-09		0e-3		-1.06753e-08
  1.8000		3.22652e-09		0e-3		-1.06651e-08
  2.0000		3.62694e-09		0e-3		-1.06961e-08
  2.2000		3.61764e-09		0e-3		-1.07045e-08
  2.4000		3.79860e-09		0e-3		-1.07439e-08
  2.6000		3.83508e-09		0e-3		-1.06732e-08
  2.8000		3.20220e-09		0e-3		-1.06514e-08
  3.0000		4.22800e-09		0e-3		-1.06353e-08
  3.2000		4.51243e-09		0e-3		-1.06487e-08
  3.4000		5.18286e-09		0e-3		-1.06945e-08
  3.6000		4.81915e-09		0e-3		-1.07217e-08
  3.8000		5.03230e-09		0e-3		-1.07394e-08
  4.0000		5.32711e-09		0e-3		-1.08174e-08
  4.2000		5.32758e-09		0e-3		-1.07443e-08
  4.4000		6.28209e-09		0e-3		-1.06668e-08
  4.6000		5.84233e-09		0e-3		-1.06792e-08
  4.8000		5.83529e-09		0e-3		-1.06703e-08
  5.0000		5.69761e-09		0e-3		-1.06474e-08
END_DB

BEGIN_DB
 ICCAP_VAR vb	1.0000
 ICCAP_VAR vg	0.2000
 ICCAP_VAR ve	0
 ICCAP_VAR vs	0

 #vd              id              ib              ig
  0.0000		-8.98242e-09		0e-3		-1.05287e-08
  0.2000		-2.13730e-09		0e-3		-1.05876e-08
  0.4000		-6.12617e-10		0e-3		-1.05548e-08
  0.6000		3.05295e-10		0e-3		-1.06759e-08
  0.8000		9.67383e-10		0e-3		-1.07212e-08
  1.0000		1.49179e-09		0e-3		-1.06411e-08
  1.2000		1.59264e-09		0e-3		-1.05888e-08
  1.4000		1.79672e-09		0e-3		-1.07110e-08
  1.6000		2.28834e-09		0e-3		-1.06351e-08
  1.8000		2.53499e-09		0e-3		-1.06169e-08
  2.0000		2.77710e-09		0e-3		-1.06499e-08
  2.2000		2.90453e-09		0e-3		-1.06531e-08
  2.4000		3.09300e-09		0e-3		-1.07509e-08
  2.6000		3.36885e-09		0e-3		-1.06208e-08
  2.8000		3.48401e-09		0e-3		-1.06255e-08
  3.0000		3.75438e-09		0e-3		-1.05861e-08
  3.2000		4.01366e-09		0e-3		-1.07287e-08
  3.4000		4.18985e-09		0e-3		-1.07282e-08
  3.6000		4.30977e-09		0e-3		-1.07065e-08
  3.8000		4.54426e-09		0e-3		-1.06635e-08
  4.0000		4.68361e-09		0e-3		-1.07654e-08
  4.2000		4.95553e-09		0e-3		-1.06978e-08
  4.4000		4.99165e-09		0e-3		-1.07261e-08
  4.6000		5.44691e-09		0e-3		-1.07924e-08
  4.8000		5.46181e-09		0e-3		-1.08846e-08
  5.0000		5.74541e-09		0e-3		-1.06949e-08
END_DB

BEGIN_DB
 ICCAP_VAR vb	1.0000
 ICCAP_VAR vg	0.4000
 ICCAP_VAR ve	0
 ICCAP_VAR vs	0

 #vd              id              ib              ig
  0.0000		-8.60965e-09		0e-3		-1.06061e-08
  0.2000		-2.51603e-09		0e-3		-1.06686e-08
  0.4000		-7.17521e-10		0e-3		-1.07081e-08
  0.6000		8.38041e-11		0e-3		-1.07784e-08
  0.8000		6.83427e-10		0e-3		-1.06632e-08
  1.0000		1.17409e-09		0e-3		-1.06915e-08
  1.2000		1.51336e-09		0e-3		-1.06721e-08
  1.4000		1.84572e-09		0e-3		-1.07297e-08
  1.6000		2.06149e-09		0e-3		-1.06924e-08
  1.8000		2.40529e-09		0e-3		-1.07083e-08
  2.0000		2.56717e-09		0e-3		-1.07321e-08
  2.2000		2.82133e-09		0e-3		-1.07640e-08
  2.4000		3.01301e-09		0e-3		-1.06637e-08
  2.6000		3.22127e-09		0e-3		-1.06299e-08
  2.8000		3.51071e-09		0e-3		-1.06443e-08
  3.0000		3.54791e-09		0e-3		-1.07051e-08
  3.2000		3.78931e-09		0e-3		-1.06966e-08
  3.4000		4.10247e-09		0e-3		-1.05892e-08
  3.6000		4.31550e-09		0e-3		-1.06392e-08
  3.8000		4.37522e-09		0e-3		-1.07349e-08
  4.0000		4.56607e-09		0e-3		-1.07161e-08
  4.2000		4.84669e-09		0e-3		-1.07330e-08
  4.4000		5.09322e-09		0e-3		-1.07691e-08
  4.6000		5.28753e-09		0e-3		-1.06767e-08
  4.8000		5.48232e-09		0e-3		-1.06229e-08
  5.0000		5.69773e-09		0e-3		-1.06435e-08
END_DB

BEGIN_DB
 ICCAP_VAR vb	1.0000
 ICCAP_VAR vg	0.6000
 ICCAP_VAR ve	0
 ICCAP_VAR vs	0

 #vd              id              ib              ig
  0.0000		-9.15611e-09		0e-3		-1.05900e-08
  0.2000		-1.39713e-09		0e-3		-1.06710e-08
  0.4000		2.72870e-10		0e-3		-1.06440e-08
  0.6000		1.10769e-09		0e-3		-1.06442e-08
  0.8000		1.81389e-09		0e-3		-1.05184e-08
  1.0000		2.26665e-09		0e-3		-1.05686e-08
  1.2000		2.68626e-09		0e-3		-1.06347e-08
  1.4000		3.09229e-09		0e-3		-1.07605e-08
  1.6000		3.51477e-09		0e-3		-1.07253e-08
  1.8000		3.65758e-09		0e-3		-1.07410e-08
  2.0000		4.04656e-09		0e-3		-1.07315e-08
  2.2000		4.25208e-09		0e-3		-1.06854e-08
  2.4000		4.54569e-09		0e-3		-1.06691e-08
  2.6000		4.70769e-09		0e-3		-1.06884e-08
  2.8000		5.11670e-09		0e-3		-1.06882e-08
  3.0000		5.38290e-09		0e-3		-1.07000e-08
  3.2000		5.67114e-09		0e-3		-1.05860e-08
  3.4000		5.96845e-09		0e-3		-1.06374e-08
  3.6000		6.08206e-09		0e-3		-1.06106e-08
  3.8000		6.35815e-09		0e-3		-1.05717e-08
  4.0000		6.60443e-09		0e-3		-1.06975e-08
  4.2000		6.94478e-09		0e-3		-1.07424e-08
  4.4000		7.42173e-09		0e-3		-1.07222e-08
  4.6000		7.51257e-09		0e-3		-1.06534e-08
  4.8000		7.88557e-09		0e-3		-1.05680e-08
  5.0000		8.28063e-09		0e-3		-1.05906e-08
END_DB

BEGIN_DB
 ICCAP_VAR vb	1.0000
 ICCAP_VAR vg	0.8000
 ICCAP_VAR ve	0
 ICCAP_VAR vs	0

 #vd              id              ib              ig
  0.0000		-9.37808e-09		0e-3		-1.05819e-08
  0.2000		2.46989e-08		0e-3		-1.06546e-08
  0.4000		2.95660e-08		0e-3		-1.06986e-08
  0.6000		3.20714e-08		0e-3		-1.08575e-08
  0.8000		3.36074e-08		0e-3		-1.06127e-08
  1.0000		3.53360e-08		0e-3		-1.05814e-08
  1.2000		3.67932e-08		0e-3		-1.06965e-08
  1.4000		3.81201e-08		0e-3		-1.05766e-08
  1.6000		3.93558e-08		0e-3		-1.06593e-08
  1.8000		4.08818e-08		0e-3		-1.06716e-08
  2.0000		4.22721e-08		0e-3		-1.06975e-08
  2.2000		4.36295e-08		0e-3		-1.07154e-08
  2.4000		4.51388e-08		0e-3		-1.06760e-08
  2.6000		4.65811e-08		0e-3		-1.06413e-08
  2.8000		4.82779e-08		0e-3		-1.06204e-08
  3.0000		5.00059e-08		0e-3		-1.06950e-08
  3.2000		5.25582e-08		0e-3		-1.06840e-08
  3.4000		5.56254e-08		0e-3		-1.06167e-08
  3.6000		5.96905e-08		0e-3		-1.06584e-08
  3.8000		6.53458e-08		0e-3		-1.06972e-08
  4.0000		7.37572e-08		0e-3		-1.06450e-08
  4.2000		8.70299e-08		0e-3		-1.06136e-08
  4.4000		1.09378e-07		0e-3		-1.07301e-08
  4.6000		1.53254e-07		0e-3		-1.05922e-08
  4.8000		2.57846e-07		0e-3		-1.07228e-08
  5.0000		5.82206e-07		0e-3		-1.06553e-08
END_DB

BEGIN_DB
 ICCAP_VAR vb	1.0000
 ICCAP_VAR vg	1.0000
 ICCAP_VAR ve	0
 ICCAP_VAR vs	0

 #vd              id              ib              ig
  0.0000		-1.44415e-08		0e-3		-1.05778e-08
  0.2000		6.88568e-07		0e-3		-1.05866e-08
  0.4000		7.63953e-07		0e-3		-1.06704e-08
  0.6000		7.96497e-07		0e-3		-1.06760e-08
  0.8000		8.21662e-07		0e-3		-1.06235e-08
  1.0000		8.44729e-07		0e-3		-1.06068e-08
  1.2000		8.66198e-07		0e-3		-1.04699e-08
  1.4000		8.86393e-07		0e-3		-1.06270e-08
  1.6000		9.08589e-07		0e-3		-1.06125e-08
  1.8000		9.32848e-07		0e-3		-1.07067e-08
  2.0000		9.59921e-07		0e-3		-1.07810e-08
  2.2000		9.94575e-07		0e-3		-1.07708e-08
  2.4000		1.03765e-06		0e-3		-1.06879e-08
  2.6000		1.12399e-06		0e-3		-1.06045e-08
  2.8000		1.27974e-06		0e-3		-1.07081e-08
  3.0000		1.58484e-06		0e-3		-1.07787e-08
  3.2000		2.24280e-06		0e-3		-1.06134e-08
  3.4000		3.71128e-06		0e-3		-1.06314e-08
  3.6000		6.56271e-06		0e-3		-1.06900e-08
  3.8000		1.09643e-05		0e-3		-1.07318e-08
  4.0000		1.66724e-05		0e-3		-1.05867e-08
  4.2000		2.34219e-05		0e-3		-1.06059e-08
  4.4000		3.09573e-05		0e-3		-1.06398e-08
  4.6000		3.91034e-05		0e-3		-1.06097e-08
  4.8000		4.77070e-05		0e-3		-1.05125e-08
  5.0000		5.65052e-05		0e-3		-1.08047e-08
END_DB

BEGIN_DB
 ICCAP_VAR vb	1.0000
 ICCAP_VAR vg	1.2000
 ICCAP_VAR ve	0
 ICCAP_VAR vs	0

 #vd              id              ib              ig
  0.0000		-3.87096e-08		0e-3		-1.05212e-08
  0.2000		8.96951e-06		0e-3		-1.05536e-08
  0.4000		9.78553e-06		0e-3		-1.04645e-08
  0.6000		1.00461e-05		0e-3		-1.06288e-08
  0.8000		1.02546e-05		0e-3		-1.08068e-08
  1.0000		1.04350e-05		0e-3		-1.07374e-08
  1.2000		1.06045e-05		0e-3		-1.07437e-08
  1.4000		1.07723e-05		0e-3		-1.05683e-08
  1.6000		1.09384e-05		0e-3		-1.05466e-08
  1.8000		1.11361e-05		0e-3		-1.07512e-08
  2.0000		1.14948e-05		0e-3		-1.07825e-08
  2.2000		1.22070e-05		0e-3		-1.06989e-08
  2.4000		1.37903e-05		0e-3		-1.06258e-08
  2.6000		1.70969e-05		0e-3		-1.06443e-08
  2.8000		2.30511e-05		0e-3		-1.07745e-08
  3.0000		3.17471e-05		0e-3		-1.06889e-08
  3.2000		4.26372e-05		0e-3		-1.07818e-08
  3.4000		5.48720e-05		0e-3		-1.07725e-08
  3.6000		6.82831e-05		0e-3		-1.07274e-08
  3.8000		8.27074e-05		0e-3		-1.07789e-08
  4.0000		9.77039e-05		0e-3		-1.05994e-08
  4.2000		1.13273e-04		0e-3		-1.06649e-08
  4.4000		1.29068e-04		0e-3		-1.07691e-08
  4.6000		1.45185e-04		0e-3		-1.06282e-08
  4.8000		1.61505e-04		0e-3		-1.07706e-08
  5.0000		1.78063e-04		0e-3		-1.07031e-08
END_DB

BEGIN_DB
 ICCAP_VAR vb	1.0000
 ICCAP_VAR vg	1.4000
 ICCAP_VAR ve	0
 ICCAP_VAR vs	0

 #vd              id              ib              ig
  0.0000		-5.22447e-08		0e-3		-1.06709e-08
  0.2000		4.39149e-05		0e-3		-1.07188e-08
  0.4000		4.81714e-05		0e-3		-1.06838e-08
  0.6000		4.90788e-05		0e-3		-1.06964e-08
  0.8000		4.97614e-05		0e-3		-1.04692e-08
  1.0000		4.98891e-05		0e-3		-1.06487e-08
  1.2000		5.04971e-05		0e-3		-1.06928e-08
  1.4000		5.09381e-05		0e-3		-1.06859e-08
  1.6000		5.15223e-05		0e-3		-1.07909e-08
  1.8000		5.21183e-05		0e-3		-1.06714e-08
  2.0000		5.34177e-05		0e-3		-1.07545e-08
  2.2000		5.67436e-05		0e-3		-1.06084e-08
  2.4000		6.44565e-05		0e-3		-1.06039e-08
  2.6000		7.80702e-05		0e-3		-1.07334e-08
  2.8000		9.64284e-05		0e-3		-1.07206e-08
  3.0000		1.17540e-04		0e-3		-1.06679e-08
  3.2000		1.39999e-04		0e-3		-1.06971e-08
  3.4000		1.63019e-04		0e-3		-1.06714e-08
  3.6000		1.86467e-04		0e-3		-1.07329e-08
  3.8000		2.10071e-04		0e-3		-1.06747e-08
  4.0000		2.33710e-04		0e-3		-1.06009e-08
  4.2000		2.57516e-04		0e-3		-1.06539e-08
  4.4000		2.81358e-04		0e-3		-1.06899e-08
  4.6000		3.05307e-04		0e-3		-1.06134e-08
  4.8000		3.29328e-04		0e-3		-1.07247e-08
  5.0000		3.53527e-04		0e-3		-1.08103e-08
END_DB

BEGIN_DB
 ICCAP_VAR vb	1.0000
 ICCAP_VAR vg	1.6000
 ICCAP_VAR ve	0
 ICCAP_VAR vs	0

 #vd              id              ib              ig
  0.0000		-5.17714e-08		0e-3		-1.06986e-08
  0.2000		1.13535e-04		0e-3		-1.07163e-08
  0.4000		1.31941e-04		0e-3		-1.07015e-08
  0.6000		1.34766e-04		0e-3		-1.05873e-08
  0.8000		1.36077e-04		0e-3		-1.06324e-08
  1.0000		1.37210e-04		0e-3		-1.06660e-08
  1.2000		1.38187e-04		0e-3		-1.06956e-08
  1.4000		1.39070e-04		0e-3		-1.07045e-08
  1.6000		1.39952e-04		0e-3		-1.07534e-08
  1.8000		1.40953e-04		0e-3		-1.05888e-08
  2.0000		1.42956e-04		0e-3		-1.07305e-08
  2.2000		1.48845e-04		0e-3		-1.06279e-08
  2.4000		1.63150e-04		0e-3		-1.06436e-08
  2.6000		1.87814e-04		0e-3		-1.06853e-08
  2.8000		2.18940e-04		0e-3		-1.06411e-08
  3.0000		2.52640e-04		0e-3		-1.06176e-08
  3.2000		2.86889e-04		0e-3		-1.06927e-08
  3.4000		3.20685e-04		0e-3		-1.07782e-08
  3.6000		3.54004e-04		0e-3		-1.07346e-08
  3.8000		3.86846e-04		0e-3		-1.07070e-08
  4.0000		4.19211e-04		0e-3		-1.06547e-08
  4.2000		4.51291e-04		0e-3		-1.06130e-08
  4.4000		4.83060e-04		0e-3		-1.04374e-08
  4.6000		5.14817e-04		0e-3		-1.06384e-08
  4.8000		5.46527e-04		0e-3		-1.06810e-08
  5.0000		5.78511e-04		0e-3		-1.06802e-08
END_DB

BEGIN_DB
 ICCAP_VAR vb	1.0000
 ICCAP_VAR vg	1.8000
 ICCAP_VAR ve	0
 ICCAP_VAR vs	0

 #vd              id              ib              ig
  0.0000		-3.52120e-08		0e-3		-1.08215e-08
  0.2000		2.03836e-04		0e-3		-1.06844e-08
  0.4000		2.63929e-04		0e-3		-1.07090e-08
  0.6000		2.73776e-04		0e-3		-1.06331e-08
  0.8000		2.76268e-04		0e-3		-1.05078e-08
  1.0000		2.78223e-04		0e-3		-1.07263e-08
  1.2000		2.80058e-04		0e-3		-1.06044e-08
  1.4000		2.81334e-04		0e-3		-1.06417e-08
  1.6000		2.82776e-04		0e-3		-1.07182e-08
  1.8000		2.84278e-04		0e-3		-1.06882e-08
  2.0000		2.86508e-04		0e-3		-1.07187e-08
  2.2000		2.92623e-04		0e-3		-1.06012e-08
  2.4000		3.09682e-04		0e-3		-1.05658e-08
  2.6000		3.42250e-04		0e-3		-1.06992e-08
  2.8000		3.85499e-04		0e-3		-1.07310e-08
  3.0000		4.31931e-04		0e-3		-1.05414e-08
  3.2000		4.78423e-04		0e-3		-1.06069e-08
  3.4000		5.23674e-04		0e-3		-1.06629e-08
  3.6000		5.67365e-04		0e-3		-1.06999e-08
  3.8000		6.09601e-04		0e-3		-1.06584e-08
  4.0000		6.50835e-04		0e-3		-1.06294e-08
  4.2000		6.91199e-04		0e-3		-1.06348e-08
  4.4000		7.31027e-04		0e-3		-1.06776e-08
  4.6000		7.70545e-04		0e-3		-1.06288e-08
  4.8000		8.09991e-04		0e-3		-1.05981e-08
  5.0000		8.49617e-04		0e-3		-1.05745e-08
END_DB

BEGIN_DB
 ICCAP_VAR vb	1.0000
 ICCAP_VAR vg	2.0000
 ICCAP_VAR ve	0
 ICCAP_VAR vs	0

 #vd              id              ib              ig
  0.0000		-5.12687e-08		0e-3		-1.02144e-08
  0.2000		3.00562e-04		0e-3		-1.06645e-08
  0.4000		4.34399e-04		0e-3		-1.07632e-08
  0.6000		4.66371e-04		0e-3		-1.06081e-08
  0.8000		4.72605e-04		0e-3		-1.06149e-08
  1.0000		4.75836e-04		0e-3		-1.06068e-08
  1.2000		4.78280e-04		0e-3		-1.07515e-08
  1.4000		4.80521e-04		0e-3		-1.06311e-08
  1.6000		4.82535e-04		0e-3		-1.06223e-08
  1.8000		4.84705e-04		0e-3		-1.04413e-08
  2.0000		4.86994e-04		0e-3		-1.07217e-08
  2.2000		4.91941e-04		0e-3		-1.05585e-08
  2.4000		5.06890e-04		0e-3		-1.06044e-08
  2.6000		5.41496e-04		0e-3		-1.07073e-08
  2.8000		5.93650e-04		0e-3		-1.06729e-08
  3.0000		6.52742e-04		0e-3		-1.06782e-08
  3.2000		7.12109e-04		0e-3		-1.06558e-08
  3.4000		7.69496e-04		0e-3		-1.07113e-08
  3.6000		8.24225e-04		0e-3		-1.06844e-08
  3.8000		8.76570e-04		0e-3		-1.07471e-08
  4.0000		9.26924e-04		0e-3		-1.06628e-08
  4.2000		9.75776e-04		0e-3		-1.06701e-08
  4.4000		1.02373e-03		0e-3		-1.06101e-08
  4.6000		1.07095e-03		0e-3		-1.08463e-08
  4.8000		1.11798e-03		0e-3		-1.07198e-08
  5.0000		1.16533e-03		0e-3		-1.07682e-08
END_DB

BEGIN_DB
 ICCAP_VAR vb	1.0000
 ICCAP_VAR vg	2.2000
 ICCAP_VAR ve	0
 ICCAP_VAR vs	0

 #vd              id              ib              ig
  0.0000		-3.85519e-07		0e-3		-1.03362e-08
  0.2000		3.98445e-04		0e-3		-1.07070e-08
  0.4000		6.23512e-04		0e-3		-1.06359e-08
  0.6000		7.05981e-04		0e-3		-1.06475e-08
  0.8000		7.25174e-04		0e-3		-1.06293e-08
  1.0000		7.30348e-04		0e-3		-1.08122e-08
  1.2000		7.34031e-04		0e-3		-1.06210e-08
  1.4000		7.37095e-04		0e-3		-1.05907e-08
  1.6000		7.39765e-04		0e-3		-1.05498e-08
  1.8000		7.42483e-04		0e-3		-1.06660e-08
  2.0000		7.44867e-04		0e-3		-1.07971e-08
  2.2000		7.48611e-04		0e-3		-1.07198e-08
  2.4000		7.59029e-04		0e-3		-1.07369e-08
  2.6000		7.88426e-04		0e-3		-1.05448e-08
  2.8000		8.43394e-04		0e-3		-1.05890e-08
  3.0000		9.12988e-04		0e-3		-1.05455e-08
  3.2000		9.85420e-04		0e-3		-1.06621e-08
  3.4000		1.05578e-03		0e-3		-1.06175e-08
  3.6000		1.12239e-03		0e-3		-1.06990e-08
  3.8000		1.18550e-03		0e-3		-1.06199e-08
  4.0000		1.24556e-03		0e-3		-1.05171e-08
  4.2000		1.30324e-03		0e-3		-1.06065e-08
  4.4000		1.35933e-03		0e-3		-1.06221e-08
  4.6000		1.41441e-03		0e-3		-1.06328e-08
  4.8000		1.46904e-03		0e-3		-1.06488e-08
  5.0000		1.52369e-03		0e-3		-1.06280e-08
END_DB

BEGIN_DB
 ICCAP_VAR vb	1.0000
 ICCAP_VAR vg	2.4000
 ICCAP_VAR ve	0
 ICCAP_VAR vs	0

 #vd              id              ib              ig
  0.0000		-5.10517e-07		0e-3		-1.02800e-08
  0.2000		4.94707e-04		0e-3		-1.06746e-08
  0.4000		8.15582e-04		0e-3		-1.04750e-08
  0.6000		9.75656e-04		0e-3		-1.06909e-08
  0.8000		1.02769e-03		0e-3		-1.06337e-08
  1.0000		1.03973e-03		0e-3		-1.06797e-08
  1.2000		1.04541e-03		0e-3		-1.06573e-08
  1.4000		1.04972e-03		0e-3		-1.05693e-08
  1.6000		1.05351e-03		0e-3		-1.05603e-08
  1.8000		1.05708e-03		0e-3		-1.05965e-08
  2.0000		1.06040e-03		0e-3		-1.06984e-08
  2.2000		1.06376e-03		0e-3		-1.06914e-08
  2.4000		1.07027e-03		0e-3		-1.06183e-08
  2.6000		1.09024e-03		0e-3		-1.05977e-08
  2.8000		1.13833e-03		0e-3		-1.05944e-08
  3.0000		1.21270e-03		0e-3		-1.06338e-08
  3.2000		1.29682e-03		0e-3		-1.05690e-08
  3.4000		1.38037e-03		0e-3		-1.05957e-08
  3.6000		1.45980e-03		0e-3		-1.05177e-08
  3.8000		1.53453e-03		0e-3		-1.07768e-08
  4.0000		1.60489e-03		0e-3		-1.06956e-08
  4.2000		1.67204e-03		0e-3		-1.07176e-08
  4.4000		1.73664e-03		0e-3		-1.06852e-08
  4.6000		1.79956e-03		0e-3		-1.06727e-08
  4.8000		1.86167e-03		0e-3		-1.05771e-08
  5.0000		1.92356e-03		0e-3		-1.08021e-08
END_DB

BEGIN_DB
 ICCAP_VAR vb	1.0000
 ICCAP_VAR vg	2.6000
 ICCAP_VAR ve	0
 ICCAP_VAR vs	0

 #vd              id              ib              ig
  0.0000		-8.02659e-07		0e-3		-1.08198e-08
  0.2000		5.88715e-04		0e-3		-1.06732e-08
  0.4000		1.00591e-03		0e-3		-1.06443e-08
  0.6000		1.25685e-03		0e-3		-1.05850e-08
  0.8000		1.36861e-03		0e-3		-1.06264e-08
  1.0000		1.40234e-03		0e-3		-1.06878e-08
  1.2000		1.41218e-03		0e-3		-1.07083e-08
  1.4000		1.41814e-03		0e-3		-1.07102e-08
  1.6000		1.42384e-03		0e-3		-1.06328e-08
  1.8000		1.42846e-03		0e-3		-1.07011e-08
  2.0000		1.43273e-03		0e-3		-1.06511e-08
  2.2000		1.43670e-03		0e-3		-1.06571e-08
  2.4000		1.44132e-03		0e-3		-1.06530e-08
  2.6000		1.45165e-03		0e-3		-1.06688e-08
  2.8000		1.48579e-03		0e-3		-1.06524e-08
  3.0000		1.55455e-03		0e-3		-1.06854e-08
  3.2000		1.64593e-03		0e-3		-1.07360e-08
  3.4000		1.74227e-03		0e-3		-1.06876e-08
  3.6000		1.83507e-03		0e-3		-1.06993e-08
  3.8000		1.92236e-03		0e-3		-1.06641e-08
  4.0000		2.00406e-03		0e-3		-1.06598e-08
  4.2000		2.08120e-03		0e-3		-1.06574e-08
  4.4000		2.15476e-03		0e-3		-1.06561e-08
  4.6000		2.22584e-03		0e-3		-1.06722e-08
  4.8000		2.29532e-03		0e-3		-1.06721e-08
  5.0000		2.36441e-03		0e-3		-1.06406e-08
END_DB

BEGIN_DB
 ICCAP_VAR vb	1.0000
 ICCAP_VAR vg	2.8000
 ICCAP_VAR ve	0
 ICCAP_VAR vs	0

 #vd              id              ib              ig
  0.0000		-1.08575e-06		0e-3		-1.05669e-08
  0.2000		6.80709e-04		0e-3		-1.06500e-08
  0.4000		1.19263e-03		0e-3		-1.06249e-08
  0.6000		1.53748e-03		0e-3		-1.06809e-08
  0.8000		1.72979e-03		0e-3		-1.06608e-08
  1.0000		1.80839e-03		0e-3		-1.06598e-08
  1.2000		1.83096e-03		0e-3		-1.06494e-08
  1.4000		1.84089e-03		0e-3		-1.06729e-08
  1.6000		1.84792e-03		0e-3		-1.06432e-08
  1.8000		1.85411e-03		0e-3		-1.06367e-08
  2.0000		1.85897e-03		0e-3		-1.06626e-08
  2.2000		1.86377e-03		0e-3		-1.06663e-08
  2.4000		1.86850e-03		0e-3		-1.07136e-08
  2.6000		1.87558e-03		0e-3		-1.06941e-08
  2.8000		1.89503e-03		0e-3		-1.07127e-08
  3.0000		1.94645e-03		0e-3		-1.07009e-08
  3.2000		2.03493e-03		0e-3		-1.06947e-08
  3.4000		2.14038e-03		0e-3		-1.06751e-08
  3.6000		2.24644e-03		0e-3		-1.06893e-08
  3.8000		2.34706e-03		0e-3		-1.06971e-08
  4.0000		2.44108e-03		0e-3		-1.07231e-08
  4.2000		2.52900e-03		0e-3		-1.07137e-08
  4.4000		2.61213e-03		0e-3		-1.07098e-08
  4.6000		2.69178e-03		0e-3		-1.07079e-08
  4.8000		2.76899e-03		0e-3		-1.06497e-08
  5.0000		2.84513e-03		0e-3		-1.07174e-08
END_DB

BEGIN_DB
 ICCAP_VAR vb	1.0000
 ICCAP_VAR vg	3.0000
 ICCAP_VAR ve	0
 ICCAP_VAR vs	0

 #vd              id              ib              ig
  0.0000		-1.45184e-06		0e-3		-1.05277e-08
  0.2000		7.70462e-04		0e-3		-1.06775e-08
  0.4000		1.37484e-03		0e-3		-1.06475e-08
  0.6000		1.81406e-03		0e-3		-1.05296e-08
  0.8000		2.09637e-03		0e-3		-1.06492e-08
  1.0000		2.24165e-03		0e-3		-1.05965e-08
  1.2000		2.29777e-03		0e-3		-1.06487e-08
  1.4000		2.31547e-03		0e-3		-1.06573e-08
  1.6000		2.32488e-03		0e-3		-1.06734e-08
  1.8000		2.33258e-03		0e-3		-1.06349e-08
  2.0000		2.33916e-03		0e-3		-1.06308e-08
  2.2000		2.34466e-03		0e-3		-1.06049e-08
  2.4000		2.35046e-03		0e-3		-1.06808e-08
  2.6000		2.35666e-03		0e-3		-1.06649e-08
  2.8000		2.36707e-03		0e-3		-1.06397e-08
  3.0000		2.39811e-03		0e-3		-1.06388e-08
  3.2000		2.47042e-03		0e-3		-1.06480e-08
  3.4000		2.57672e-03		0e-3		-1.06596e-08
  3.6000		2.69356e-03		0e-3		-1.06542e-08
