! VERSION = 6.00
BEGIN_HEADER
 ICCAP_INPUTS
  vg         V  G GROUND SMU2 1E-005 LIN	2	0	-5	6	-1
  vb         V  B GROUND SMU4 0.01 LIN	3	-1         -1         1    -1        
  vd         V  D GROUND SMU1 0.1 LIN	1	0          -5          51   -0.1       
  vs         V  S GROUND SMU3 0.1 CON        0
  ve         V  E GROUND SMU5 0.1 CON        0
 ICCAP_OUTPUTS
  id         I  D GROUND SMU1 B
  ib         I  D GROUND SMU4 B
  ig         I  D GROUND SMU2 B
END_HEADER


BEGIN_DB
 ICCAP_VAR vb	1.0000
 ICCAP_VAR vg	0.0000
 ICCAP_VAR ve	0
 ICCAP_VAR vs	0

 #vd              id              ib              ig
  0.0000		-3.68595e-10		0e-3		-1.05731e-08
  -0.1000		-6.73127e-09		0e-3		-1.06418e-08
  -0.2000		-9.71019e-09		0e-3		-1.05658e-08
  -0.3000		-1.17611e-08		0e-3		-1.05851e-08
  -0.4000		-1.35289e-08		0e-3		-1.06637e-08
  -0.5000		-1.51740e-08		0e-3		-1.06667e-08
  -0.6000		-1.65609e-08		0e-3		-1.06567e-08
  -0.7000		-1.74030e-08		0e-3		-1.06997e-08
  -0.8000		-1.81801e-08		0e-3		-1.06773e-08
  -0.9000		-1.87033e-08		0e-3		-1.06453e-08
  -1.0000		-1.92199e-08		0e-3		-1.06710e-08
  -1.1000		-1.97365e-08		0e-3		-1.06736e-08
  -1.2000		-2.01730e-08		0e-3		-1.06180e-08
  -1.3000		-2.04651e-08		0e-3		-1.06204e-08
  -1.4000		-2.09198e-08		0e-3		-1.06573e-08
  -1.5000		-2.12349e-08		0e-3		-1.06244e-08
  -1.6000		-2.15342e-08		0e-3		-1.06475e-08
  -1.7000		-2.18818e-08		0e-3		-1.06428e-08
  -1.8000		-2.22578e-08		0e-3		-1.06498e-08
  -1.9000		-2.25822e-08		0e-3		-1.06406e-08
  -2.0000		-2.29393e-08		0e-3		-1.05679e-08
  -2.1000		-2.32767e-08		0e-3		-1.05952e-08
  -2.2000		-2.35074e-08		0e-3		-1.07301e-08
  -2.3000		-2.38237e-08		0e-3		-1.06468e-08
  -2.4000		-2.40459e-08		0e-3		-1.06771e-08
  -2.5000		-2.43921e-08		0e-3		-1.06425e-08
  -2.6000		-2.46627e-08		0e-3		-1.05593e-08
  -2.7000		-2.50905e-08		0e-3		-1.05903e-08
  -2.8000		-2.53125e-08		0e-3		-1.06190e-08
  -2.9000		-2.57229e-08		0e-3		-1.06522e-08
  -3.0000		-2.59597e-08		0e-3		-1.06593e-08
  -3.1000		-2.62256e-08		0e-3		-1.06783e-08
  -3.2000		-2.65441e-08		0e-3		-1.06727e-08
  -3.3000		-2.67625e-08		0e-3		-1.06921e-08
  -3.4000		-2.70532e-08		0e-3		-1.06205e-08
  -3.5000		-2.73541e-08		0e-3		-1.05872e-08
  -3.6000		-2.78072e-08		0e-3		-1.05827e-08
  -3.7000		-2.80378e-08		0e-3		-1.06974e-08
  -3.8000		-2.83229e-08		0e-3		-1.05878e-08
  -3.9000		-2.85617e-08		0e-3		-1.05959e-08
  -4.0000		-2.88767e-08		0e-3		-1.06015e-08
  -4.1000		-2.91634e-08		0e-3		-1.06273e-08
  -4.2000		-2.94341e-08		0e-3		-1.05858e-08
  -4.3000		-2.98085e-08		0e-3		-1.06078e-08
  -4.4000		-3.01212e-08		0e-3		-1.05762e-08
  -4.5000		-3.05188e-08		0e-3		-1.05631e-08
  -4.6000		-3.07693e-08		0e-3		-1.05952e-08
  -4.7000		-3.11636e-08		0e-3		-1.06326e-08
  -4.8000		-3.14068e-08		0e-3		-1.06425e-08
  -4.9000		-3.17169e-08		0e-3		-1.06078e-08
  -5.0000		-3.20261e-08		0e-3		-1.06419e-08
END_DB

BEGIN_DB
 ICCAP_VAR vb	1.0000
 ICCAP_VAR vg	-1.0000
 ICCAP_VAR ve	0
 ICCAP_VAR vs	0

 #vd              id              ib              ig
  0.0000		-1.58429e-10		0e-3		-1.07275e-08
  -0.1000		-8.87787e-09		0e-3		-1.06483e-08
  -0.2000		-1.20566e-08		0e-3		-1.06941e-08
  -0.3000		-1.42395e-08		0e-3		-1.06655e-08
  -0.4000		-1.61270e-08		0e-3		-1.06262e-08
  -0.5000		-1.78355e-08		0e-3		-1.06641e-08
  -0.6000		-1.91830e-08		0e-3		-1.06798e-08
  -0.7000		-2.01013e-08		0e-3		-1.06859e-08
  -0.8000		-2.09194e-08		0e-3		-1.07316e-08
  -0.9000		-2.14703e-08		0e-3		-1.06606e-08
  -1.0000		-2.20746e-08		0e-3		-1.06416e-08
  -1.1000		-2.25827e-08		0e-3		-1.06474e-08
  -1.2000		-2.30769e-08		0e-3		-1.06333e-08
  -1.3000		-2.34767e-08		0e-3		-1.06664e-08
  -1.4000		-2.38215e-08		0e-3		-1.06483e-08
  -1.5000		-2.42320e-08		0e-3		-1.06212e-08
  -1.6000		-2.45283e-08		0e-3		-1.06299e-08
  -1.7000		-2.49901e-08		0e-3		-1.06727e-08
  -1.8000		-2.53245e-08		0e-3		-1.06474e-08
  -1.9000		-2.56979e-08		0e-3		-1.06778e-08
  -2.0000		-2.60768e-08		0e-3		-1.05795e-08
  -2.1000		-2.63758e-08		0e-3		-1.05621e-08
  -2.2000		-2.67348e-08		0e-3		-1.06609e-08
  -2.3000		-2.70315e-08		0e-3		-1.06460e-08
  -2.4000		-2.73877e-08		0e-3		-1.06518e-08
  -2.5000		-2.77448e-08		0e-3		-1.06630e-08
  -2.6000		-2.79872e-08		0e-3		-1.06349e-08
  -2.7000		-2.83583e-08		0e-3		-1.06418e-08
  -2.8000		-2.87060e-08		0e-3		-1.06899e-08
  -2.9000		-2.89470e-08		0e-3		-1.06281e-08
  -3.0000		-2.93339e-08		0e-3		-1.06121e-08
  -3.1000		-2.95786e-08		0e-3		-1.06466e-08
  -3.2000		-2.99194e-08		0e-3		-1.06343e-08
  -3.3000		-3.02074e-08		0e-3		-1.06677e-08
  -3.4000		-3.04512e-08		0e-3		-1.06403e-08
  -3.5000		-3.07583e-08		0e-3		-1.06431e-08
  -3.6000		-3.10881e-08		0e-3		-1.06301e-08
  -3.7000		-3.14229e-08		0e-3		-1.06376e-08
  -3.8000		-3.16696e-08		0e-3		-1.05906e-08
  -3.9000		-3.19160e-08		0e-3		-1.06325e-08
  -4.0000		-3.22561e-08		0e-3		-1.06101e-08
  -4.1000		-3.25751e-08		0e-3		-1.06219e-08
  -4.2000		-3.28653e-08		0e-3		-1.06276e-08
  -4.3000		-3.31569e-08		0e-3		-1.06302e-08
  -4.4000		-3.34847e-08		0e-3		-1.06608e-08
  -4.5000		-3.37706e-08		0e-3		-1.06416e-08
  -4.6000		-3.40605e-08		0e-3		-1.06626e-08
  -4.7000		-3.43796e-08		0e-3		-1.06199e-08
  -4.8000		-3.47134e-08		0e-3		-1.06174e-08
  -4.9000		-3.49460e-08		0e-3		-1.06061e-08
  -5.0000		-3.52594e-08		0e-3		-1.06220e-08
END_DB

BEGIN_DB
 ICCAP_VAR vb	1.0000
 ICCAP_VAR vg	-2.0000
 ICCAP_VAR ve	0
 ICCAP_VAR vs	0

 #vd              id              ib              ig
  0.0000		1.54278e-07		0e-3		-1.06249e-08
  -0.1000		-4.50970e-05		0e-3		-1.06900e-08
  -0.2000		-7.83801e-05		0e-3		-1.06654e-08
  -0.3000		-9.93133e-05		0e-3		-1.07169e-08
  -0.4000		-1.10352e-04		0e-3		-1.06835e-08
  -0.5000		-1.14977e-04		0e-3		-1.06902e-08
  -0.6000		-1.16861e-04		0e-3		-1.07119e-08
  -0.7000		-1.17934e-04		0e-3		-1.07082e-08
  -0.8000		-1.18756e-04		0e-3		-1.07108e-08
  -0.9000		-1.19269e-04		0e-3		-1.07582e-08
  -1.0000		-1.19781e-04		0e-3		-1.06353e-08
  -1.1000		-1.20342e-04		0e-3		-1.06755e-08
  -1.2000		-1.20795e-04		0e-3		-1.06411e-08
  -1.3000		-1.21117e-04		0e-3		-1.06640e-08
  -1.4000		-1.21498e-04		0e-3		-1.06688e-08
  -1.5000		-1.21880e-04		0e-3		-1.06373e-08
  -1.6000		-1.22261e-04		0e-3		-1.06503e-08
  -1.7000		-1.22595e-04		0e-3		-1.06256e-08
  -1.8000		-1.22845e-04		0e-3		-1.06357e-08
  -1.9000		-1.23179e-04		0e-3		-1.06410e-08
  -2.0000		-1.23465e-04		0e-3		-1.06635e-08
  -2.1000		-1.23823e-04		0e-3		-1.06596e-08
  -2.2000		-1.24097e-04		0e-3		-1.06486e-08
  -2.3000		-1.24383e-04		0e-3		-1.06528e-08
  -2.4000		-1.24633e-04		0e-3		-1.06506e-08
  -2.5000		-1.24955e-04		0e-3		-1.06658e-08
  -2.6000		-1.25122e-04		0e-3		-1.06831e-08
  -2.7000		-1.25408e-04		0e-3		-1.06426e-08
  -2.8000		-1.25730e-04		0e-3		-1.06578e-08
  -2.9000		-1.25980e-04		0e-3		-1.06605e-08
  -3.0000		-1.26183e-04		0e-3		-1.06477e-08
  -3.1000		-1.26469e-04		0e-3		-1.06380e-08
  -3.2000		-1.26684e-04		0e-3		-1.06702e-08
  -3.3000		-1.26946e-04		0e-3		-1.06603e-08
  -3.4000		-1.27184e-04		0e-3		-1.06325e-08
  -3.5000		-1.27423e-04		0e-3		-1.06759e-08
  -3.6000		-1.27709e-04		0e-3		-1.06832e-08
  -3.7000		-1.27923e-04		0e-3		-1.06677e-08
  -3.8000		-1.28067e-04		0e-3		-1.06505e-08
  -3.9000		-1.28376e-04		0e-3		-1.06447e-08
  -4.0000		-1.28579e-04		0e-3		-1.06443e-08
  -4.1000		-1.28818e-04		0e-3		-1.06272e-08
  -4.2000		-1.29056e-04		0e-3		-1.06168e-08
  -4.3000		-1.29306e-04		0e-3		-1.06902e-08
  -4.4000		-1.29580e-04		0e-3		-1.06368e-08
  -4.5000		-1.29831e-04		0e-3		-1.06835e-08
  -4.6000		-1.30033e-04		0e-3		-1.06747e-08
  -4.7000		-1.30260e-04		0e-3		-1.06589e-08
  -4.8000		-1.30463e-04		0e-3		-1.06539e-08
  -4.9000		-1.30701e-04		0e-3		-1.06596e-08
  -5.0000		-1.30975e-04		0e-3		-1.06441e-08
END_DB

BEGIN_DB
 ICCAP_VAR vb	1.0000
 ICCAP_VAR vg	-3.0000
 ICCAP_VAR ve	0
 ICCAP_VAR vs	0

 #vd              id              ib              ig
  0.0000		3.84246e-07		0e-3		-1.07515e-08
  -0.1000		-1.38104e-04		0e-3		-1.06387e-08
  -0.2000		-2.65443e-04		0e-3		-1.06859e-08
  -0.3000		-3.81112e-04		0e-3		-1.07067e-08
  -0.4000		-4.84967e-04		0e-3		-1.06924e-08
  -0.5000		-5.77164e-04		0e-3		-1.06753e-08
  -0.6000		-6.57678e-04		0e-3		-1.06766e-08
  -0.7000		-7.26354e-04		0e-3		-1.06558e-08
  -0.8000		-7.83551e-04		0e-3		-1.06491e-08
  -0.9000		-8.29434e-04		0e-3		-1.06204e-08
  -1.0000		-8.64577e-04		0e-3		-1.06751e-08
  -1.1000		-8.90350e-04		0e-3		-1.06657e-08
  -1.2000		-9.07910e-04		0e-3		-1.06828e-08
  -1.3000		-9.19426e-04		0e-3		-1.07403e-08
  -1.4000		-9.27043e-04		0e-3		-1.07216e-08
  -1.5000		-9.32491e-04		0e-3		-1.06939e-08
  -1.6000		-9.36878e-04		0e-3		-1.06925e-08
  -1.7000		-9.40514e-04		0e-3		-1.07069e-08
  -1.8000		-9.43601e-04		0e-3		-1.06663e-08
  -1.9000		-9.46569e-04		0e-3		-1.06958e-08
  -2.0000		-9.49156e-04		0e-3		-1.06982e-08
  -2.1000		-9.51672e-04		0e-3		-1.07256e-08
  -2.2000		-9.54020e-04		0e-3		-1.06914e-08
  -2.3000		-9.56214e-04		0e-3		-1.06920e-08
  -2.4000		-9.58490e-04		0e-3		-1.06983e-08
  -2.5000		-9.60588e-04		0e-3		-1.06754e-08
  -2.6000		-9.62663e-04		0e-3		-1.07255e-08
  -2.7000		-9.64797e-04		0e-3		-1.06317e-08
  -2.8000		-9.66656e-04		0e-3		-1.07694e-08
  -2.9000		-9.68480e-04		0e-3		-1.06820e-08
  -3.0000		-9.70364e-04		0e-3		-1.07336e-08
  -3.1000		-9.72140e-04		0e-3		-1.06550e-08
  -3.2000		-9.73988e-04		0e-3		-1.06385e-08
  -3.3000		-9.75621e-04		0e-3		-1.06734e-08
  -3.4000		-9.77325e-04		0e-3		-1.06503e-08
  -3.5000		-9.79102e-04		0e-3		-1.06347e-08
  -3.6000		-9.80771e-04		0e-3		-1.06447e-08
  -3.7000		-9.82356e-04		0e-3		-1.06775e-08
  -3.8000		-9.83977e-04		0e-3		-1.06739e-08
  -3.9000		-9.85599e-04		0e-3		-1.06517e-08
  -4.0000		-9.87184e-04		0e-3		-1.06496e-08
  -4.1000		-9.88662e-04		0e-3		-1.06236e-08
  -4.2000		-9.90367e-04		0e-3		-1.06258e-08
  -4.3000		-9.91821e-04		0e-3		-1.06534e-08
  -4.4000		-9.93383e-04		0e-3		-1.06428e-08
  -4.5000		-9.94968e-04		0e-3		-1.06651e-08
  -4.6000		-9.96470e-04		0e-3		-1.07131e-08
  -4.7000		-9.98116e-04		0e-3		-1.06577e-08
  -4.8000		-9.99665e-04		0e-3		-1.06611e-08
  -4.9000		-1.00114e-03		0e-3		-1.06605e-08
  -5.0000		-1.00260e-03		0e-3		-1.06549e-08
END_DB

BEGIN_DB
 ICCAP_VAR vb	1.0000
 ICCAP_VAR vg	-4.0000
 ICCAP_VAR ve	0
 ICCAP_VAR vs	0

 #vd              id              ib              ig
  0.0000		2.70207e-07		0e-3		-1.10065e-08
  -0.1000		-2.16866e-04		0e-3		-1.07301e-08
  -0.2000		-4.24612e-04		0e-3		-1.06906e-08
  -0.3000		-6.22320e-04		0e-3		-1.06931e-08
  -0.4000		-8.09920e-04		0e-3		-1.07530e-08
  -0.5000		-9.87423e-04		0e-3		-1.07206e-08
  -0.6000		-1.15465e-03		0e-3		-1.07322e-08
  -0.7000		-1.31160e-03		0e-3		-1.06895e-08
  -0.8000		-1.45823e-03		0e-3		-1.06528e-08
  -0.9000		-1.59434e-03		0e-3		-1.06492e-08
  -1.0000		-1.71999e-03		0e-3		-1.06800e-08
  -1.1000		-1.83585e-03		0e-3		-1.06540e-08
  -1.2000		-1.94048e-03		0e-3		-1.06969e-08
  -1.3000		-2.03463e-03		0e-3		-1.07446e-08
  -1.4000		-2.11824e-03		0e-3		-1.07343e-08
  -1.5000		-2.19162e-03		0e-3		-1.06884e-08
  -1.6000		-2.25434e-03		0e-3		-1.06474e-08
  -1.7000		-2.30750e-03		0e-3		-1.06800e-08
  -1.8000		-2.35111e-03		0e-3		-1.06779e-08
  -1.9000		-2.38605e-03		0e-3		-1.06608e-08
  -2.0000		-2.41362e-03		0e-3		-1.06279e-08
  -2.1000		-2.43469e-03		0e-3		-1.06955e-08
  -2.2000		-2.45074e-03		0e-3		-1.06711e-08
  -2.3000		-2.46378e-03		0e-3		-1.07305e-08
  -2.4000		-2.47436e-03		0e-3		-1.06889e-08
  -2.5000		-2.48330e-03		0e-3		-1.06857e-08
  -2.6000		-2.49121e-03		0e-3		-1.06515e-08
  -2.7000		-2.49851e-03		0e-3		-1.06356e-08
  -2.8000		-2.50508e-03		0e-3		-1.06902e-08
  -2.9000		-2.51137e-03		0e-3		-1.06781e-08
  -3.0000		-2.51720e-03		0e-3		-1.06835e-08
  -3.1000		-2.52287e-03		0e-3		-1.06462e-08
  -3.2000		-2.52845e-03		0e-3		-1.06670e-08
  -3.3000		-2.53360e-03		0e-3		-1.06590e-08
  -3.4000		-2.53884e-03		0e-3		-1.06702e-08
  -3.5000		-2.54378e-03		0e-3		-1.06213e-08
  -3.6000		-2.54877e-03		0e-3		-1.07143e-08
  -3.7000		-2.55350e-03		0e-3		-1.07065e-08
  -3.8000		-2.55821e-03		0e-3		-1.06802e-08
  -3.9000		-2.56259e-03		0e-3		-1.06789e-08
  -4.0000		-2.56718e-03		0e-3		-1.06150e-08
  -4.1000		-2.57161e-03		0e-3		-1.06125e-08
  -4.2000		-2.57603e-03		0e-3		-1.06683e-08
  -4.3000		-2.58020e-03		0e-3		-1.06033e-08
  -4.4000		-2.58441e-03		0e-3		-1.06691e-08
  -4.5000		-2.58863e-03		0e-3		-1.06672e-08
  -4.6000		-2.59273e-03		0e-3		-1.06986e-08
  -4.7000		-2.59681e-03		0e-3		-1.06678e-08
  -4.8000		-2.60069e-03		0e-3		-1.06915e-08
  -4.9000		-2.60477e-03		0e-3		-1.07977e-08
  -5.0000		-2.60860e-03		0e-3		-1.06646e-08
END_DB

BEGIN_DB
 ICCAP_VAR vb	1.0000
 ICCAP_VAR vg	-5.0000
 ICCAP_VAR ve	0
 ICCAP_VAR vs	0

 #vd              id              ib              ig
  0.0000		1.77653e-07		0e-3		-1.18544e-08
  -0.1000		-2.84803e-04		0e-3		-1.07381e-08
  -0.2000		-5.62644e-04		0e-3		-1.07247e-08
  -0.3000		-8.32260e-04		0e-3		-1.07412e-08
  -0.4000		-1.09209e-03		0e-3		-1.07026e-08
  -0.5000		-1.34289e-03		0e-3		-1.07331e-08
  -0.6000		-1.58459e-03		0e-3		-1.07076e-08
  -0.7000		-1.81723e-03		0e-3		-1.08013e-08
  -0.8000		-2.04060e-03		0e-3		-1.07219e-08
  -0.9000		-2.25482e-03		0e-3		-1.06845e-08
  -1.0000		-2.45987e-03		0e-3		-1.07442e-08
  -1.1000		-2.65623e-03		0e-3		-1.07442e-08
  -1.2000		-2.84240e-03		0e-3		-1.07329e-08
  -1.3000		-3.01890e-03		0e-3		-1.07384e-08
  -1.4000		-3.18625e-03		0e-3		-1.07390e-08
  -1.5000		-3.34409e-03		0e-3		-1.07015e-08
  -1.6000		-3.49180e-03		0e-3		-1.06801e-08
  -1.7000		-3.63008e-03		0e-3		-1.07095e-08
  -1.8000		-3.75841e-03		0e-3		-1.07034e-08
  -1.9000		-3.87752e-03		0e-3		-1.07177e-08
  -2.0000		-3.98644e-03		0e-3		-1.07172e-08
  -2.1000		-4.08595e-03		0e-3		-1.06932e-08
  -2.2000		-4.17532e-03		0e-3		-1.07298e-08
  -2.3000		-4.25507e-03		0e-3		-1.06242e-08
  -2.4000		-4.32563e-03		0e-3		-1.06941e-08
  -2.5000		-4.38714e-03		0e-3		-1.06410e-08
  -2.6000		-4.43997e-03		0e-3		-1.06971e-08
  -2.7000		-4.48509e-03		0e-3		-1.06970e-08
  -2.8000		-4.52348e-03		0e-3		-1.05908e-08
  -2.9000		-4.55697e-03		0e-3		-1.06623e-08
  -3.0000		-4.58302e-03		0e-3		-1.06734e-08
  -3.1000		-4.60514e-03		0e-3		-1.06630e-08
  -3.2000		-4.62427e-03		0e-3		-1.06775e-08
  -3.3000		-4.64097e-03		0e-3		-1.06708e-08
  -3.4000		-4.65562e-03		0e-3		-1.06571e-08
  -3.5000		-4.66872e-03		0e-3		-1.06450e-08
  -3.6000		-4.68090e-03		0e-3		-1.06515e-08
  -3.7000		-4.69266e-03		0e-3		-1.06922e-08
  -3.8000		-4.70356e-03		0e-3		-1.06629e-08
  -3.9000		-4.71394e-03		0e-3		-1.06857e-08
  -4.0000		-4.72384e-03		0e-3		-1.06934e-08
  -4.1000		-4.73351e-03		0e-3		-1.06796e-08
  -4.2000		-4.74280e-03		0e-3		-1.06702e-08
  -4.3000		-4.75187e-03		0e-3		-1.06454e-08
  -4.4000		-4.76056e-03		0e-3		-1.06933e-08
  -4.5000		-4.76940e-03		0e-3		-1.06435e-08
  -4.6000		-4.77777e-03		0e-3		-1.06767e-08
  -4.7000		-4.78621e-03		0e-3		-1.06730e-08
  -4.8000		-4.79403e-03		0e-3		-1.06547e-08
  -4.9000		-4.80206e-03		0e-3		-1.06614e-08
  -5.0000		-4.80996e-03		0e-3		-1.06647e-08
END_DB