! VERSION = 6.00
BEGIN_HEADER
 ICCAP_INPUTS
  vg         V  G GROUND SMU2 1E-005 LIN        1    1          -5          7   -1       
  vb         V  B GROUND SMU4 0.01 LIN        2    0          1         1    2        
  vd         V  D GROUND SMU1 0.1 LIN        3    -0.05       -5          6    -0.99      
  vs         V  S GROUND SMU3 0.1 CON        0
  ve         V  E GROUND SMU5 0.1 CON        0
 ICCAP_OUTPUTS
  id         I  D GROUND SMU1 B
  ib         I  D GROUND SMU4 B
  ig         I  D GROUND SMU2 B
END_HEADER


BEGIN_DB
 ICCAP_VAR vd	-0.0500
 ICCAP_VAR vb	-0.0000
 ICCAP_VAR ve	0
 ICCAP_VAR vs	0

 #vg              id              ig              ib
  1.0000		-3.98588e-09		-1.04048e-08		0e-3
  0.0000		-4.04739e-09		-1.06792e-08		0e-3
  -1.0000		-4.95112e-09		-1.09810e-08		0e-3
  -2.0000		-2.40874e-05		-1.06146e-08		0e-3
  -3.0000		-7.12633e-05		-1.05824e-08		0e-3
  -4.0000		-1.10817e-04		-1.06467e-08		0e-3
  -5.0000		-1.45292e-04		-1.06320e-08		0e-3
END_DB

BEGIN_DB
 ICCAP_VAR vd	-1.0400
 ICCAP_VAR vb	-0.0000
 ICCAP_VAR ve	0
 ICCAP_VAR vs	0

 #vg              id              ig              ib
  1.0000		-1.95167e-08		-1.04973e-08		0e-3
  0.0000		-1.92823e-08		-1.06096e-08		0e-3
  -1.0000		-2.18731e-08		-1.05834e-08		0e-3
  -2.0000		-1.21224e-04		-1.05948e-08		0e-3
  -3.0000		-8.83794e-04		-1.05745e-08		0e-3
  -4.0000		-1.78177e-03		-1.05972e-08		0e-3
  -5.0000		-2.55580e-03		-1.05430e-08		0e-3
END_DB

BEGIN_DB
 ICCAP_VAR vd	-2.0300
 ICCAP_VAR vb	-0.0000
 ICCAP_VAR ve	0
 ICCAP_VAR vs	0

 #vg              id              ig              ib
  1.0000		-2.30628e-08		-1.05386e-08		0e-3
  0.0000		-2.30697e-08		-1.06105e-08		0e-3
  -1.0000		-2.58399e-08		-1.06132e-08		0e-3
  -2.0000		-1.24979e-04		-1.06040e-08		0e-3
  -3.0000		-9.58323e-04		-1.06109e-08		0e-3
  -4.0000		-2.43459e-03		-1.06344e-08		0e-3
  -5.0000		-4.03537e-03		-1.06514e-08		0e-3
END_DB

BEGIN_DB
 ICCAP_VAR vd	-3.0200
 ICCAP_VAR vb	-0.0000
 ICCAP_VAR ve	0
 ICCAP_VAR vs	0

 #vg              id              ig              ib
  1.0000		-2.61334e-08		-1.05520e-08		0e-3
  0.0000		-2.62425e-08		-1.06056e-08		0e-3
  -1.0000		-2.90669e-08		-1.06151e-08		0e-3
  -2.0000		-1.27697e-04		-1.05914e-08		0e-3
  -3.0000		-9.79233e-04		-1.06053e-08		0e-3
  -4.0000		-2.53353e-03		-1.06385e-08		0e-3
  -5.0000		-4.60881e-03		-1.07198e-08		0e-3
END_DB

BEGIN_DB
 ICCAP_VAR vd	-4.0100
 ICCAP_VAR vb	-0.0000
 ICCAP_VAR ve	0
 ICCAP_VAR vs	0

 #vg              id              ig              ib
  1.0000		-2.90608e-08		-1.04828e-08		0e-3
  0.0000		-2.90459e-08		-1.05852e-08		0e-3
  -1.0000		-3.20650e-08		-1.05646e-08		0e-3
  -2.0000		-1.30081e-04		-1.05736e-08		0e-3
  -3.0000		-9.96172e-04		-1.05958e-08		0e-3
  -4.0000		-2.58293e-03		-1.06002e-08		0e-3
  -5.0000		-4.74862e-03		-1.06229e-08		0e-3
END_DB

BEGIN_DB
 ICCAP_VAR vd	-5.0000
 ICCAP_VAR vb	-0.0000
 ICCAP_VAR ve	0
 ICCAP_VAR vs	0

 #vg              id              ig              ib
  1.0000		-3.38352e-08		-9.98724e-09		0e-3
  0.0000		-3.21430e-08		-1.05488e-08		0e-3
  -1.0000		-3.52259e-08		-1.05014e-08		0e-3
  -2.0000		-1.32346e-04		-1.05530e-08		0e-3
  -3.0000		-1.01144e-03		-1.05873e-08		0e-3
  -4.0000		-2.62437e-03		-1.06307e-08		0e-3
  -5.0000		-4.83601e-03		-1.05931e-08		0e-3
END_DB