! VERSION = 6.00
BEGIN_HEADER
 ICCAP_INPUTS
  vg         V  G GROUND SMU2 1E-005 LIN	2	0	5	6	1
  vb         V  B GROUND SMU4 0.01 LIN	3	1         1         1    1        
  vd         V  D GROUND SMU1 0.1 LIN	1	0          5          51   0.1       
  vs         V  S GROUND SMU3 0.1 CON        0
  ve         V  E GROUND SMU5 0.1 CON        0
 ICCAP_OUTPUTS
  id         I  D GROUND SMU1 B
  ib         I  D GROUND SMU4 B
  ig         I  D GROUND SMU2 B
END_HEADER


BEGIN_DB
 ICCAP_VAR vb	1.0000
 ICCAP_VAR vg	0.0000
 ICCAP_VAR ve	0
 ICCAP_VAR vs	0

 #vd              id              ib              ig
  0.0000		-8.48770e-10		0e-3		-1.08051e-08
  0.1000		4.42505e-10		0e-3		-1.07536e-08
  0.2000		-1.72603e-09		0e-3		-1.06099e-08
  0.3000		1.29974e-09		0e-3		-1.03987e-08
  0.4000		1.50204e-10		0e-3		-1.05811e-08
  0.5000		6.07371e-10		0e-3		-1.04958e-08
  0.6000		1.15991e-09		0e-3		-1.08689e-08
  0.7000		-4.01735e-11		0e-3		-1.07130e-08
  0.8000		3.39365e-09		0e-3		-9.86671e-09
  0.9000		4.77326e-09		0e-3		-1.06483e-08
  1.0000		1.58632e-09		0e-3		-1.07739e-08
  1.1000		5.35130e-10		0e-3		-1.07063e-08
  1.2000		-2.38538e-10		0e-3		-1.06976e-08
  1.3000		2.86102e-11		0e-3		-1.07465e-08
  1.4000		1.18685e-09		0e-3		-1.07729e-08
  1.5000		1.95885e-09		0e-3		-1.07208e-08
  1.6000		1.77670e-09		0e-3		-1.06776e-08
  1.7000		2.90823e-09		0e-3		-1.06804e-08
  1.8000		1.96946e-09		0e-3		-1.07043e-08
  1.9000		3.38078e-09		0e-3		-1.06834e-08
  2.0000		1.68705e-09		0e-3		-1.07121e-08
  2.1000		4.11236e-09		0e-3		-1.07220e-08
  2.2000		3.12173e-09		0e-3		-1.06491e-08
  2.3000		6.12736e-10		0e-3		-1.07408e-08
  2.4000		4.02653e-09		0e-3		-1.07075e-08
  2.5000		1.38068e-09		0e-3		-1.07236e-08
  2.6000		1.52147e-09		0e-3		-1.07087e-08
  2.7000		1.08910e-09		0e-3		-1.06819e-08
  2.8000		2.50459e-10		0e-3		-1.07293e-08
  2.9000		2.14183e-09		0e-3		-1.07242e-08
  3.0000		3.81553e-09		0e-3		-1.06180e-08
  3.1000		1.78826e-09		0e-3		-1.07466e-08
  3.2000		1.30880e-09		0e-3		-1.07541e-08
  3.3000		9.00149e-10		0e-3		-1.07071e-08
  3.4000		2.49958e-09		0e-3		-1.07486e-08
  3.5000		1.52731e-09		0e-3		-1.07549e-08
  3.6000		1.96064e-09		0e-3		-1.07151e-08
  3.7000		3.59941e-09		0e-3		-1.07402e-08
  3.8000		2.43938e-09		0e-3		-1.07361e-08
  3.9000		8.30293e-10		0e-3		-1.07030e-08
  4.0000		4.63402e-09		0e-3		-1.06909e-08
  4.1000		2.16389e-09		0e-3		-1.06721e-08
  4.2000		6.53136e-09		0e-3		-1.07154e-08
  4.3000		2.74134e-09		0e-3		-1.07045e-08
  4.4000		3.02041e-09		0e-3		-1.07074e-08
  4.5000		3.99280e-09		0e-3		-1.06975e-08
  4.6000		4.08721e-09		0e-3		-1.07073e-08
  4.7000		3.11708e-09		0e-3		-1.07089e-08
  4.8000		6.30832e-09		0e-3		-1.06783e-08
  4.9000		3.58331e-09		0e-3		-1.07148e-08
  5.0000		1.37472e-09		0e-3		-1.07219e-08
END_DB

BEGIN_DB
 ICCAP_VAR vb	1.0000
 ICCAP_VAR vg	1.0000
 ICCAP_VAR ve	0
 ICCAP_VAR vs	0

 #vd              id              ib              ig
  0.0000		-1.26309e-08		0e-3		-1.06959e-08
  0.1000		5.50480e-07		0e-3		-1.06812e-08
  0.2000		7.27689e-07		0e-3		-1.06779e-08
  0.3000		7.74443e-07		0e-3		-1.06803e-08
  0.4000		7.94959e-07		0e-3		-1.07050e-08
  0.5000		8.09264e-07		0e-3		-1.07309e-08
  0.6000		8.20708e-07		0e-3		-1.07155e-08
  0.7000		8.31115e-07		0e-3		-1.06657e-08
  0.8000		8.40211e-07		0e-3		-1.07259e-08
  0.9000		8.52299e-07		0e-3		-1.07442e-08
  1.0000		8.61144e-07		0e-3		-1.07248e-08
  1.1000		8.72791e-07		0e-3		-1.07030e-08
  1.2000		8.81231e-07		0e-3		-1.07517e-08
  1.3000		8.89790e-07		0e-3		-1.07393e-08
  1.4000		8.99875e-07		0e-3		-1.06986e-08
  1.5000		9.08744e-07		0e-3		-1.07142e-08
  1.6000		9.18567e-07		0e-3		-1.07137e-08
  1.7000		9.26006e-07		0e-3		-1.07729e-08
  1.8000		9.37605e-07		0e-3		-1.07989e-08
  1.9000		9.49156e-07		0e-3		-1.07723e-08
  2.0000		9.62067e-07		0e-3		-1.07387e-08
  2.1000		9.75692e-07		0e-3		-1.07419e-08
  2.2000		9.92572e-07		0e-3		-1.06980e-08
  2.3000		1.01613e-06		0e-3		-1.06734e-08
  2.4000		1.04290e-06		0e-3		-1.07218e-08
  2.5000		1.08899e-06		0e-3		-1.06632e-08
  2.6000		1.13811e-06		0e-3		-1.07430e-08
  2.7000		1.20391e-06		0e-3		-1.07123e-08
  2.8000		1.29318e-06		0e-3		-1.06848e-08
  2.9000		1.42006e-06		0e-3		-1.06454e-08
  3.0000		1.60145e-06		0e-3		-1.06595e-08
  3.1000		1.86075e-06		0e-3		-1.06648e-08
  3.2000		2.25695e-06		0e-3		-1.06446e-08
  3.3000		2.84584e-06		0e-3		-1.07119e-08
  3.4000		3.71989e-06		0e-3		-1.07224e-08
  3.5000		4.94502e-06		0e-3		-1.07257e-08
  3.6000		6.55460e-06		0e-3		-1.07465e-08
  3.7000		8.56531e-06		0e-3		-1.07373e-08
  3.8000		1.09400e-05		0e-3		-1.07085e-08
  3.9000		1.36403e-05		0e-3		-1.07085e-08
  4.0000		1.66402e-05		0e-3		-1.06289e-08
  4.1000		1.98916e-05		0e-3		-1.07021e-08
  4.2000		2.33639e-05		0e-3		-1.06832e-08
  4.3000		2.70438e-05		0e-3		-1.07055e-08
  4.4000		3.09010e-05		0e-3		-1.06817e-08
  4.5000		3.49054e-05		0e-3		-1.07464e-08
  4.6000		3.90422e-05		0e-3		-1.07347e-08
  4.7000		4.32951e-05		0e-3		-1.07026e-08
  4.8000		4.76531e-05		0e-3		-1.07253e-08
  4.9000		5.21660e-05		0e-3		-1.07383e-08
  5.0000		5.67675e-05		0e-3		-1.07280e-08
END_DB

BEGIN_DB
 ICCAP_VAR vb	1.0000
 ICCAP_VAR vg	2.0000
 ICCAP_VAR ve	0
 ICCAP_VAR vs	0

 #vd              id              ib              ig
  0.0000		-1.43291e-08		0e-3		-1.01855e-08
  0.1000		1.71232e-04		0e-3		-1.06877e-08
  0.2000		3.02959e-04		0e-3		-1.06767e-08
  0.3000		3.90208e-04		0e-3		-1.07245e-08
  0.4000		4.39036e-04		0e-3		-1.06714e-08
  0.5000		4.61781e-04		0e-3		-1.07448e-08
  0.6000		4.71902e-04		0e-3		-1.07021e-08
  0.7000		4.75764e-04		0e-3		-1.07635e-08
  0.8000		4.77409e-04		0e-3		-1.06444e-08
  0.9000		4.79150e-04		0e-3		-1.05923e-08
  1.0000		4.80485e-04		0e-3		-1.07250e-08
  1.1000		4.81486e-04		0e-3		-1.07419e-08
  1.2000		4.82917e-04		0e-3		-1.08413e-08
  1.3000		4.83882e-04		0e-3		-1.08167e-08
  1.4000		4.84848e-04		0e-3		-1.06914e-08
  1.5000		4.85730e-04		0e-3		-1.07393e-08
  1.6000		4.86708e-04		0e-3		-1.06169e-08
  1.7000		4.87506e-04		0e-3		-1.06820e-08
  1.8000		4.88353e-04		0e-3		-1.08224e-08
  1.9000		4.89414e-04		0e-3		-1.07599e-08
  2.0000		4.90558e-04		0e-3		-1.06981e-08
  2.1000		4.92096e-04		0e-3		-1.07807e-08
  2.2000		4.95148e-04		0e-3		-1.06665e-08
  2.3000		5.00417e-04		0e-3		-1.08207e-08
  2.4000		5.09620e-04		0e-3		-1.08457e-08
  2.5000		5.23937e-04		0e-3		-1.07951e-08
  2.6000		5.43654e-04		0e-3		-1.08820e-08
  2.7000		5.68056e-04		0e-3		-1.06255e-08
  2.8000		5.95379e-04		0e-3		-1.07104e-08
  2.9000		6.24621e-04		0e-3		-1.07030e-08
  3.0000		6.54435e-04		0e-3		-1.06297e-08
  3.1000		6.84261e-04		0e-3		-1.06330e-08
  3.2000		7.13778e-04		0e-3		-1.07802e-08
  3.3000		7.42757e-04		0e-3		-1.07800e-08
  3.4000		7.71105e-04		0e-3		-1.07601e-08
  3.5000		7.98750e-04		0e-3		-1.06776e-08
  3.6000		8.25775e-04		0e-3		-1.05249e-08
  3.7000		8.52203e-04		0e-3		-1.05914e-08
  3.8000		8.78024e-04		0e-3		-1.06869e-08
  3.9000		9.03320e-04		0e-3		-1.07982e-08
  4.0000		9.28235e-04		0e-3		-1.08165e-08
  4.1000		9.52840e-04		0e-3		-1.07808e-08
  4.2000		9.77015e-04		0e-3		-1.06814e-08
  4.3000		1.00104e-03		0e-3		-1.06823e-08
  4.4000		1.02475e-03		0e-3		-1.08738e-08
  4.5000		1.04842e-03		0e-3		-1.06647e-08
  4.6000		1.07194e-03		0e-3		-1.07391e-08
  4.7000		1.09541e-03		0e-3		-1.06668e-08
  4.8000		1.11890e-03		0e-3		-1.06298e-08
  4.9000		1.14239e-03		0e-3		-1.06459e-08
  5.0000		1.16583e-03		0e-3		-1.07452e-08
END_DB

BEGIN_DB
 ICCAP_VAR vb	1.0000
 ICCAP_VAR vg	3.0000
 ICCAP_VAR ve	0
 ICCAP_VAR vs	0

 #vd              id              ib              ig
  0.0000		-1.38952e-06		0e-3		-1.06496e-08
  0.1000		4.04334e-04		0e-3		-1.07675e-08
  0.2000		7.71880e-04		0e-3		-1.05902e-08
  0.3000		1.09609e-03		0e-3		-1.06366e-08
  0.4000		1.37835e-03		0e-3		-1.06784e-08
  0.5000		1.61935e-03		0e-3		-1.06562e-08
  0.6000		1.81975e-03		0e-3		-1.06931e-08
  0.7000		1.98084e-03		0e-3		-1.07088e-08
  0.8000		2.10395e-03		0e-3		-1.07663e-08
  0.9000		2.19208e-03		0e-3		-1.06313e-08
  1.0000		2.25066e-03		0e-3		-1.06891e-08
  1.1000		2.28696e-03		0e-3		-1.06771e-08
  1.2000		2.30730e-03		0e-3		-1.06682e-08
  1.3000		2.31787e-03		0e-3		-1.05412e-08
  1.4000		2.32421e-03		0e-3		-1.06324e-08
  1.5000		2.32967e-03		0e-3		-1.04179e-08
  1.6000		2.33402e-03		0e-3		-1.07900e-08
  1.7000		2.33763e-03		0e-3		-1.07925e-08
  1.8000		2.34134e-03		0e-3		-1.07989e-08
  1.9000		2.34420e-03		0e-3		-1.07040e-08
  2.0000		2.34764e-03		0e-3		-1.07023e-08
  2.1000		2.35038e-03		0e-3		-1.06375e-08
  2.2000		2.35293e-03		0e-3		-1.05923e-08
  2.3000		2.35544e-03		0e-3		-1.07501e-08
  2.4000		2.35809e-03		0e-3		-1.09023e-08
  2.5000		2.36056e-03		0e-3		-1.06781e-08
  2.6000		2.36324e-03		0e-3		-1.07305e-08
  2.7000		2.36741e-03		0e-3		-1.06624e-08
  2.8000		2.37342e-03		0e-3		-1.07546e-08
  2.9000		2.38436e-03		0e-3		-1.06803e-08
  3.0000		2.40395e-03		0e-3		-1.05872e-08
  3.1000		2.43361e-03		0e-3		-1.07766e-08
  3.2000		2.47463e-03		0e-3		-1.06313e-08
  3.3000		2.52470e-03		0e-3		-1.07325e-08
  3.4000		2.58020e-03		0e-3		-1.07574e-08
  3.5000		2.63841e-03		0e-3		-1.07685e-08
  3.6000		2.69684e-03		0e-3		-1.07502e-08
  3.7000		2.75462e-03		0e-3		-1.07021e-08
  3.8000		2.81087e-03		0e-3		-1.08017e-08
  3.9000		2.86523e-03		0e-3		-1.06658e-08
  4.0000		2.91781e-03		0e-3		-1.08362e-08
  4.1000		2.96861e-03		0e-3		-1.06878e-08
  4.2000		3.01745e-03		0e-3		-1.07453e-08
  4.3000		3.06481e-03		0e-3		-1.07129e-08
  4.4000		3.11079e-03		0e-3		-1.06468e-08
  4.5000		3.15552e-03		0e-3		-1.07791e-08
  4.6000		3.19935e-03		0e-3		-1.07467e-08
  4.7000		3.24240e-03		0e-3		-1.07580e-08
  4.8000		3.28451e-03		0e-3		-1.06070e-08
  4.9000		3.32628e-03		0e-3		-1.06199e-08
  5.0000		3.36785e-03		0e-3		-1.06615e-08
END_DB

BEGIN_DB
 ICCAP_VAR vb	1.0000
 ICCAP_VAR vg	4.0000
 ICCAP_VAR ve	0
 ICCAP_VAR vs	0

 #vd              id              ib              ig
  0.0000		-2.60167e-06		0e-3		-1.13508e-08
  0.1000		6.10781e-04		0e-3		-1.07080e-08
  0.2000		1.18867e-03		0e-3		-1.07462e-08
  0.3000		1.72652e-03		0e-3		-1.06915e-08
  0.4000		2.22523e-03		0e-3		-1.06647e-08
  0.5000		2.68573e-03		0e-3		-1.07653e-08
  0.6000		3.10848e-03		0e-3		-1.06463e-08
  0.7000		3.49370e-03		0e-3		-1.06095e-08
  0.8000		3.84178e-03		0e-3		-1.07360e-08
  0.9000		4.15303e-03		0e-3		-1.06826e-08
  1.0000		4.42817e-03		0e-3		-1.07471e-08
  1.1000		4.66802e-03		0e-3		-1.08420e-08
  1.2000		4.87224e-03		0e-3		-1.06803e-08
  1.3000		5.16593e-03		0e-3		-1.06188e-08
  1.4000		5.30803e-03		0e-3		-1.07160e-08
  1.5000		5.44107e-03		0e-3		-1.07127e-08
  1.6000		5.49328e-03		0e-3		-1.06564e-08
  1.7000		5.56123e-03		0e-3		-1.06875e-08
  1.8000		5.59092e-03		0e-3		-1.07005e-08
  1.9000		5.62048e-03		0e-3		-1.07087e-08
  2.0000		5.64456e-03		0e-3		-1.06877e-08
  2.1000		5.65481e-03		0e-3		-1.06746e-08
  2.2000		5.67639e-03		0e-3		-1.08267e-08
  2.3000		5.66614e-03		0e-3		-1.07132e-08
  2.4000		5.67687e-03		0e-3		-1.06562e-08
  2.5000		5.66399e-03		0e-3		-1.06837e-08
  2.6000		5.70524e-03		0e-3		-1.06940e-08
  2.7000		5.69606e-03		0e-3		-1.07028e-08
  2.8000		5.70226e-03		0e-3		-1.07050e-08
  2.9000		5.67925e-03		0e-3		-1.06913e-08
  3.0000		5.70202e-03		0e-3		-1.06826e-08
  3.1000		5.72670e-03		0e-3		-1.07412e-08
  3.2000		5.71430e-03		0e-3		-1.07076e-08
  3.3000		5.73361e-03		0e-3		-1.06740e-08
  3.4000		5.74493e-03		0e-3		-1.06786e-08
  3.5000		5.74732e-03		0e-3		-1.06875e-08
  3.6000		5.75376e-03		0e-3		-1.06909e-08
  3.7000		5.78701e-03		0e-3		-1.06268e-08
  3.8000		5.82576e-03		0e-3		-1.06648e-08
  3.9000		5.89108e-03		0e-3		-1.06584e-08
  4.0000		5.95117e-03		0e-3		-1.06786e-08
  4.1000		6.03414e-03		0e-3		-1.06710e-08
  4.2000		6.12235e-03		0e-3		-1.06517e-08
  4.3000		6.18327e-03		0e-3		-1.08960e-08
  4.4000		6.26218e-03		0e-3		-1.07454e-08
  4.5000		6.36113e-03		0e-3		-1.07085e-08
  4.6000		6.42431e-03		0e-3		-1.07718e-08
  4.7000		6.49393e-03		0e-3		-1.07582e-08
  4.8000		6.54876e-03		0e-3		-1.06686e-08
  4.9000		6.60694e-03		0e-3		-1.07048e-08
  5.0000		6.68347e-03		0e-3		-1.06972e-08
END_DB

BEGIN_DB
 ICCAP_VAR vb	1.0000
 ICCAP_VAR vg	5.0000
 ICCAP_VAR ve	0
 ICCAP_VAR vs	0

 #vd              id              ib              ig
  0.0000		-4.07948e-06		0e-3		-1.25223e-08
  0.1000		7.95472e-04		0e-3		-1.06428e-08
  0.2000		1.56096e-03		0e-3		-1.06516e-08
  0.3000		2.28891e-03		0e-3		-1.06409e-08
  0.4000		2.98078e-03		0e-3		-1.06819e-08
  0.5000		3.63697e-03		0e-3		-1.06808e-08
  0.6000		4.25746e-03		0e-3		-1.07044e-08
  0.7000		4.84290e-03		0e-3		-1.07840e-08
  0.8000		5.54574e-03		0e-3		-1.07071e-08
  0.9000		6.04975e-03		0e-3		-1.07052e-08
  1.0000		6.52111e-03		0e-3		-1.06773e-08
  1.1000		6.96993e-03		0e-3		-1.07247e-08
  1.2000		7.39837e-03		0e-3		-1.07034e-08
  1.3000		7.77030e-03		0e-3		-1.06680e-08
  1.4000		8.13127e-03		0e-3		-1.06894e-08
  1.5000		8.43358e-03		0e-3		-1.06856e-08
  1.6000		8.71551e-03		0e-3		-1.06823e-08
  1.7000		8.96251e-03		0e-3		-1.07024e-08
  1.8000		9.19044e-03		0e-3		-1.07086e-08
  1.9000		9.37796e-03		0e-3		-1.06847e-08
  2.0000		9.53352e-03		0e-3		-1.06686e-08
  2.1000		9.67443e-03		0e-3		-1.06673e-08
  2.2000		9.76872e-03		0e-3		-1.06099e-08
  2.3000		9.84907e-03		0e-3		-1.06643e-08
  2.4000		9.91380e-03		0e-3		-1.06511e-08
  2.5000		9.96327e-03		0e-3		-1.07259e-08
  2.6000		9.99856e-03		0e-3		-1.07121e-08
  2.7000		1.00068e-02		0e-3		-1.06570e-08
  2.8000		1.00274e-02		0e-3		-1.07006e-08
  2.9000		1.00584e-02		0e-3		-1.06713e-08
  3.0000		1.00598e-02		0e-3		-1.06325e-08
  3.1000		1.00832e-02		0e-3		-1.06006e-08
  3.2000		1.00954e-02		0e-3		-1.06000e-08
  3.3000		1.01050e-02		0e-3		-1.06708e-08
  3.4000		1.00888e-02		0e-3		-1.06989e-08
  3.5000		1.00995e-02		0e-3		-1.06748e-08
  3.6000		1.01147e-02		0e-3		-1.06529e-08
  3.7000		1.01180e-02		0e-3		-1.06477e-08
  3.8000		1.01231e-02		0e-3		-1.06326e-08
  3.9000		1.01250e-02		0e-3		-1.06472e-08
  4.0000		1.01434e-02		0e-3		-1.06454e-08
  4.1000		1.01514e-02		0e-3		-1.07059e-08
  4.2000		1.01618e-02		0e-3		-1.07559e-08
  4.3000		1.01787e-02		0e-3		-1.06877e-08
  4.4000		1.02037e-02		0e-3		-1.06612e-08
  4.5000		1.02369e-02		0e-3		-1.06496e-08
  4.6000		1.03121e-02		0e-3		-1.06294e-08
  4.7000		1.03980e-02		0e-3		-1.06416e-08
  4.8000		1.04827e-02		0e-3		-1.06806e-08
  4.9000		1.05565e-02		0e-3		-1.07048e-08
  5.0000		1.06530e-02		0e-3		-1.07212e-08
END_DB