! VERSION = 6.00
BEGIN_HEADER
 ICCAP_INPUTS
  vg         V  G GROUND SMU2 1E-005 LIN        1    -1          5          7   1       
  vb         V  B GROUND SMU4 0.01 LIN        2    0          1         1    2        
  vd         V  D GROUND SMU1 0.1 LIN        3    0.05       5          6    0.99      
  vs         V  S GROUND SMU3 0.1 CON        0
  ve         V  E GROUND SMU5 0.1 CON        0
 ICCAP_OUTPUTS
  id         I  D GROUND SMU1 B
  ib         I  D GROUND SMU4 B
  ig         I  D GROUND SMU2 B
END_HEADER


BEGIN_DB
 ICCAP_VAR vd	0.0500
 ICCAP_VAR vb	0.0000
 ICCAP_VAR ve	0
 ICCAP_VAR vs	0

 #vg              id              ig              ib
  -1.0000		-4.31538e-11		-1.04090e-08		0e-3
  0.0000		-1.14083e-10		-1.11135e-08		0e-3
  1.0000		3.68856e-07		-1.08069e-08		0e-3
  2.0000		9.03522e-05		-1.07323e-08		0e-3
  3.0000		2.06327e-04		-1.07006e-08		0e-3
  4.0000		3.09420e-04		-1.04709e-08		0e-3
  5.0000		4.01759e-04		-1.07461e-08		0e-3
END_DB

BEGIN_DB
 ICCAP_VAR vd	1.0400
 ICCAP_VAR vb	0.0000
 ICCAP_VAR ve	0
 ICCAP_VAR vs	0

 #vg              id              ig              ib
  -1.0000		5.96786e-09		-1.06915e-08		0e-3
  0.0000		1.76859e-09		-1.07553e-08		0e-3
  1.0000		9.79367e-07		-1.06994e-08		0e-3
  2.0000		4.97115e-04		-1.03725e-08		0e-3
  3.0000		2.31769e-03		-1.03559e-08		0e-3
  4.0000		4.57938e-03		-1.07965e-08		0e-3
  5.0000		6.73938e-03		-1.04138e-08		0e-3
END_DB

BEGIN_DB
 ICCAP_VAR vd	2.0300
 ICCAP_VAR vb	0.0000
 ICCAP_VAR ve	0
 ICCAP_VAR vs	0

 #vg              id              ig              ib
  -1.0000		1.52659e-09		-1.06318e-08		0e-3
  0.0000		1.06370e-09		-1.06961e-08		0e-3
  1.0000		1.08521e-06		-1.06863e-08		0e-3
  2.0000		5.08893e-04		-1.07644e-08		0e-3
  3.0000		2.40926e-03		-1.07253e-08		0e-3
  4.0000		5.72693e-03		-1.07026e-08		0e-3
  5.0000		9.69088e-03		-1.07139e-08		0e-3
END_DB

BEGIN_DB
 ICCAP_VAR vd	3.0200
 ICCAP_VAR vb	0.0000
 ICCAP_VAR ve	0
 ICCAP_VAR vs	0

 #vg              id              ig              ib
  -1.0000		6.49571e-09		-1.08621e-08		0e-3
  0.0000		2.60234e-09		-1.07492e-08		0e-3
  1.0000		1.87143e-06		-1.07336e-08		0e-3
  2.0000		6.71184e-04		-1.07566e-08		0e-3
  3.0000		2.46531e-03		-1.07543e-08		0e-3
  4.0000		5.80430e-03		-1.07397e-08		0e-3
  5.0000		1.02067e-02		-1.06883e-08		0e-3
END_DB

BEGIN_DB
 ICCAP_VAR vd	4.0100
 ICCAP_VAR vb	0.0000
 ICCAP_VAR ve	0
 ICCAP_VAR vs	0

 #vg              id              ig              ib
  -1.0000		7.16805e-09		-1.07588e-08		0e-3
  0.0000		3.59654e-09		-1.07561e-08		0e-3
  1.0000		1.76050e-05		-1.07694e-08		0e-3
  2.0000		9.38296e-04		-1.07764e-08		0e-3
  3.0000		2.95980e-03		-1.07201e-08		0e-3
  4.0000		6.02996e-03		-1.06777e-08		0e-3
  5.0000		1.02845e-02		-1.06975e-08		0e-3
END_DB

BEGIN_DB
 ICCAP_VAR vd	5.0000
 ICCAP_VAR vb	0.0000
 ICCAP_VAR ve	0
 ICCAP_VAR vs	0

 #vg              id              ig              ib
  -1.0000		7.34448e-09		-1.08129e-08		0e-3
  0.0000		2.48075e-09		-1.07603e-08		0e-3
  1.0000		5.70330e-05		-1.07604e-08		0e-3
  2.0000		1.17104e-03		-1.07790e-08		0e-3
  3.0000		3.39940e-03		-1.07341e-08		0e-3
  4.0000		6.73091e-03		-1.07212e-08		0e-3
  5.0000		1.07756e-02		-1.07445e-08		0e-3
END_DB