! VERSION = 6.00
BEGIN_HEADER
 ICCAP_INPUTS
  vg         V  G GROUND SMU2 1E-005 LIN        1    -1          5          61   0.1       
  vb         V  B GROUND SMU4 0.01 LIN        2    1          1         1    1        
  vd         V  D GROUND SMU1 0.1 LIN        3    0.05       5          6    0.99      
  vs         V  S GROUND SMU3 0.1 CON        0
  ve         V  E GROUND SMU5 0.1 CON        0
 ICCAP_OUTPUTS
  id         I  D GROUND SMU1 B
  ib         I  D GROUND SMU4 B
  ig         I  D GROUND SMU2 B
END_HEADER


BEGIN_DB
 ICCAP_VAR vd	0.0500
 ICCAP_VAR vb	1.0000
 ICCAP_VAR ve	0
 ICCAP_VAR vs	0

 #vg              id              ig              ib
  -1.0000		1.44966e-08		-1.07819e-08		0e-3
  -0.9000		1.46246e-08		-1.05903e-08		0e-3
  -0.8000		1.45578e-08		-1.05051e-08		0e-3
  -0.7000		1.43815e-08		-1.04383e-08		0e-3
  -0.6000		1.43517e-08		-1.05978e-08		0e-3
  -0.5000		1.44424e-08		-1.06132e-08		0e-3
  -0.4000		1.45810e-08		-1.06525e-08		0e-3
  -0.3000		1.45526e-08		-1.06038e-08		0e-3
  -0.2000		1.45760e-08		-1.06537e-08		0e-3
  -0.1000		1.44994e-08		-1.05906e-08		0e-3
  -0.0000		1.45293e-08		-1.05836e-08		0e-3
  0.1000		1.46390e-08		-1.05988e-08		0e-3
  0.2000		1.49168e-08		-1.06316e-08		0e-3
  0.3000		1.55847e-08		-1.06398e-08		0e-3
  0.4000		1.76721e-08		-1.07117e-08		0e-3
  0.5000		2.40564e-08		-1.06442e-08		0e-3
  0.6000		4.57641e-08		-1.06062e-08		0e-3
  0.7000		1.20810e-07		-1.06406e-08		0e-3
  0.8000		3.76766e-07		-1.05766e-08		0e-3
  0.9000		1.17394e-06		-1.05917e-08		0e-3
  1.0000		3.19248e-06		-1.06074e-08		0e-3
  1.1000		7.10869e-06		-1.05989e-08		0e-3
  1.2000		1.30506e-05		-1.05573e-08		0e-3
  1.3000		2.06001e-05		-1.06421e-08		0e-3
  1.4000		2.92035e-05		-1.06028e-08		0e-3
  1.5000		3.84491e-05		-1.05677e-08		0e-3
  1.6000		4.80425e-05		-1.05540e-08		0e-3
  1.7000		5.74708e-05		-1.06169e-08		0e-3
  1.8000		6.72579e-05		-1.05629e-08		0e-3
  1.9000		7.71523e-05		-1.05957e-08		0e-3
  2.0000		8.69274e-05		-1.05362e-08		0e-3
  2.1000		9.66549e-05		-1.06043e-08		0e-3
  2.2000		1.06227e-04		-1.05768e-08		0e-3
  2.3000		1.15752e-04		-1.06199e-08		0e-3
  2.4000		1.25134e-04		-1.06313e-08		0e-3
  2.5000		1.34420e-04		-1.06205e-08		0e-3
  2.6000		1.43480e-04		-1.05894e-08		0e-3
  2.7000		1.52624e-04		-1.06336e-08		0e-3
  2.8000		1.61481e-04		-1.05788e-08		0e-3
  2.9000		1.70290e-04		-1.05544e-08		0e-3
  3.0000		1.79100e-04		-1.06454e-08		0e-3
  3.1000		1.87683e-04		-1.05817e-08		0e-3
  3.2000		1.96171e-04		-1.05710e-08		0e-3
  3.3000		2.04551e-04		-1.05336e-08		0e-3
  3.4000		2.12896e-04		-1.06212e-08		0e-3
  3.5000		2.21097e-04		-1.05679e-08		0e-3
  3.6000		2.29204e-04		-1.05829e-08		0e-3
  3.7000		2.37191e-04		-1.05609e-08		0e-3
  3.8000		2.45047e-04		-1.06080e-08		0e-3
  3.9000		2.52891e-04		-1.06370e-08		0e-3
  4.0000		2.60627e-04		-1.06022e-08		0e-3
  4.1000		2.68340e-04		-1.06142e-08		0e-3
  4.2000		2.75922e-04		-1.06471e-08		0e-3
  4.3000		2.83420e-04		-1.06317e-08		0e-3
  4.4000		2.90895e-04		-1.06578e-08		0e-3
  4.5000		2.98178e-04		-1.06131e-08		0e-3
  4.6000		3.05390e-04		-1.05871e-08		0e-3
  4.7000		3.12626e-04		-1.05650e-08		0e-3
  4.8000		3.19707e-04		-1.06472e-08		0e-3
  4.9000		3.26741e-04		-1.06491e-08		0e-3
  5.0000		3.33571e-04		-1.06459e-08		0e-3
END_DB

BEGIN_DB
 ICCAP_VAR vd	1.0400
 ICCAP_VAR vb	1.0000
 ICCAP_VAR ve	0
 ICCAP_VAR vs	0

 #vg              id              ig              ib
  -1.0000		6.48105e-08		-1.07394e-08		0e-3
  -0.9000		6.45959e-08		-1.06543e-08		0e-3
  -0.8000		6.45554e-08		-1.05864e-08		0e-3
  -0.7000		6.44386e-08		-1.06670e-08		0e-3
  -0.6000		6.43814e-08		-1.06407e-08		0e-3
  -0.5000		6.42991e-08		-1.06075e-08		0e-3
  -0.4000		6.42788e-08		-1.06295e-08		0e-3
  -0.3000		6.42598e-08		-1.06509e-08		0e-3
  -0.2000		6.42168e-08		-1.05966e-08		0e-3
  -0.1000		6.42753e-08		-1.05783e-08		0e-3
  -0.0000		6.42741e-08		-1.06007e-08		0e-3
  0.1000		6.44314e-08		-1.05761e-08		0e-3
  0.2000		6.47986e-08		-1.05723e-08		0e-3
  0.3000		6.66976e-08		-1.06070e-08		0e-3
  0.4000		7.26962e-08		-1.05561e-08		0e-3
  0.5000		9.22441e-08		-1.06071e-08		0e-3
  0.6000		1.57197e-07		-1.05655e-08		0e-3
  0.7000		3.79484e-07		-1.05569e-08		0e-3
  0.8000		1.11903e-06		-1.05693e-08		0e-3
  0.9000		3.28119e-06		-1.05656e-08		0e-3
  1.0000		8.51548e-06		-1.05832e-08		0e-3
  1.1000		1.88547e-05		-1.05659e-08		0e-3
  1.2000		3.60935e-05		-1.05618e-08		0e-3
  1.3000		6.14285e-05		-1.05538e-08		0e-3
  1.4000		9.60231e-05		-1.06213e-08		0e-3
  1.5000		1.40393e-04		-1.05947e-08		0e-3
  1.6000		1.94800e-04		-1.06072e-08		0e-3
  1.7000		2.59471e-04		-1.06212e-08		0e-3
  1.8000		3.34620e-04		-1.06131e-08		0e-3
  1.9000		4.20487e-04		-1.06422e-08		0e-3
  2.0000		5.16534e-04		-1.06057e-08		0e-3
  2.1000		6.23298e-04		-1.05717e-08		0e-3
  2.2000		7.40588e-04		-1.05797e-08		0e-3
  2.3000		8.68177e-04		-1.05991e-08		0e-3
  2.4000		1.00607e-03		-1.05656e-08		0e-3
  2.5000		1.15366e-03		-1.05911e-08		0e-3
  2.6000		1.31097e-03		-1.05730e-08		0e-3
  2.7000		1.47662e-03		-1.05660e-08		0e-3
  2.8000		1.64900e-03		-1.05755e-08		0e-3
  2.9000		1.82694e-03		-1.06095e-08		0e-3
  3.0000		2.00896e-03		-1.05664e-08		0e-3
  3.1000		2.19256e-03		-1.06215e-08		0e-3
  3.2000		2.37758e-03		-1.06245e-08		0e-3
  3.3000		2.56251e-03		-1.05945e-08		0e-3
  3.4000		2.74625e-03		-1.06033e-08		0e-3
  3.5000		2.92876e-03		-1.06013e-08		0e-3
  3.6000		3.10988e-03		-1.05507e-08		0e-3
  3.7000		3.28866e-03		-1.06573e-08		0e-3
  3.8000		3.46596e-03		-1.06117e-08		0e-3
  3.9000		3.64099e-03		-1.06245e-08		0e-3
  4.0000		3.81409e-03		-1.06288e-08		0e-3
  4.1000		3.98513e-03		-1.05911e-08		0e-3
  4.2000		4.15392e-03		-1.06084e-08		0e-3
  4.3000		4.32105e-03		-1.05269e-08		0e-3
  4.4000		4.48663e-03		-1.05517e-08		0e-3
  4.5000		4.65035e-03		-1.05606e-08		0e-3
  4.6000		4.81195e-03		-1.05138e-08		0e-3
  4.7000		4.97195e-03		-1.05907e-08		0e-3
  4.8000		5.24127e-03		-1.05907e-08		0e-3
  4.9000		5.39017e-03		-1.05578e-08		0e-3
  5.0000		5.54168e-03		-1.05575e-08		0e-3
END_DB

BEGIN_DB
 ICCAP_VAR vd	2.0300
 ICCAP_VAR vb	1.0000
 ICCAP_VAR ve	0
 ICCAP_VAR vs	0

 #vg              id              ig              ib
  -1.0000		7.60484e-08		-1.06119e-08		0e-3
  -0.9000		7.56371e-08		-1.06183e-08		0e-3
  -0.8000		7.55882e-08		-1.06294e-08		0e-3
  -0.7000		7.55215e-08		-1.06360e-08		0e-3
  -0.6000		7.54976e-08		-1.06071e-08		0e-3
  -0.5000		7.54952e-08		-1.06022e-08		0e-3
  -0.4000		7.54857e-08		-1.06195e-08		0e-3
  -0.3000		7.54976e-08		-1.06064e-08		0e-3
  -0.2000		7.55405e-08		-1.06289e-08		0e-3
  -0.1000		7.54893e-08		-1.06570e-08		0e-3
  -0.0000		7.55501e-08		-1.06406e-08		0e-3
  0.1000		7.56824e-08		-1.06291e-08		0e-3
  0.2000		7.61318e-08		-1.06186e-08		0e-3
  0.3000		7.81405e-08		-1.06144e-08		0e-3
  0.4000		8.48520e-08		-1.06121e-08		0e-3
  0.5000		1.06769e-07		-1.06503e-08		0e-3
  0.6000		1.79691e-07		-1.05811e-08		0e-3
  0.7000		4.27121e-07		-1.06411e-08		0e-3
  0.8000		1.24104e-06		-1.06199e-08		0e-3
  0.9000		3.58982e-06		-1.06066e-08		0e-3
  1.0000		9.17912e-06		-1.05689e-08		0e-3
  1.1000		2.00568e-05		-1.05847e-08		0e-3
  1.2000		3.79994e-05		-1.06069e-08		0e-3
  1.3000		6.41227e-05		-1.05819e-08		0e-3
  1.4000		9.97543e-05		-1.06106e-08		0e-3
  1.5000		1.45090e-04		-1.05525e-08		0e-3
  1.6000		2.00784e-04		-1.05835e-08		0e-3
  1.7000		2.66707e-04		-1.06089e-08		0e-3
  1.8000		3.43144e-04		-1.05813e-08		0e-3
  1.9000		4.30417e-04		-1.05878e-08		0e-3
  2.0000		5.28169e-04		-1.05907e-08		0e-3
  2.1000		6.36899e-04		-1.05897e-08		0e-3
  2.2000		7.56288e-04		-1.05873e-08		0e-3
  2.3000		8.86369e-04		-1.05679e-08		0e-3
  2.4000		1.02705e-03		-1.05926e-08		0e-3
  2.5000		1.17848e-03		-1.05686e-08		0e-3
  2.6000		1.34026e-03		-1.06056e-08		0e-3
  2.7000		1.51321e-03		-1.05777e-08		0e-3
  2.8000		1.69563e-03		-1.05897e-08		0e-3
  2.9000		1.88909e-03		-1.05433e-08		0e-3
  3.0000		2.09268e-03		-1.05916e-08		0e-3
  3.1000		2.30637e-03		-1.05705e-08		0e-3
  3.2000		2.53007e-03		-1.06103e-08		0e-3
  3.3000		2.76376e-03		-1.06012e-08		0e-3
  3.4000		3.00747e-03		-1.05534e-08		0e-3
  3.5000		3.26054e-03		-1.05566e-08		0e-3
  3.6000		3.52296e-03		-1.04619e-08		0e-3
  3.7000		3.79450e-03		-1.05991e-08		0e-3
  3.8000		4.07561e-03		-1.06361e-08		0e-3
  3.9000		4.36428e-03		-1.06473e-08		0e-3
  4.0000		4.66071e-03		-1.05113e-08		0e-3
  4.1000		4.96496e-03		-1.06089e-08		0e-3
  4.2000		5.41174e-03		-1.05791e-08		0e-3
  4.3000		5.70941e-03		-1.05759e-08		0e-3
  4.4000		6.03271e-03		-1.05169e-08		0e-3
  4.5000		6.35159e-03		-1.04685e-08		0e-3
  4.6000		6.64961e-03		-1.06126e-08		0e-3
  4.7000		6.99294e-03		-1.05698e-08		0e-3
  4.8000		7.30824e-03		-1.05963e-08		0e-3
  4.9000		7.63118e-03		-1.05224e-08		0e-3
  5.0000		7.94733e-03		-1.05222e-08		0e-3
END_DB

BEGIN_DB
 ICCAP_VAR vd	3.0200
 ICCAP_VAR vb	1.0000
 ICCAP_VAR ve	0
 ICCAP_VAR vs	0

 #vg              id              ig              ib
  -1.0000		8.69346e-08		-1.06300e-08		0e-3
  -0.9000		8.60560e-08		-1.06542e-08		0e-3
  -0.8000		8.58772e-08		-1.06599e-08		0e-3
  -0.7000		8.56352e-08		-1.06938e-08		0e-3
  -0.6000		8.55088e-08		-1.06417e-08		0e-3
  -0.5000		8.54027e-08		-1.05913e-08		0e-3
  -0.4000		8.54087e-08		-1.05898e-08		0e-3
  -0.3000		8.52466e-08		-1.05921e-08		0e-3
  -0.2000		8.52132e-08		-1.06417e-08		0e-3
  -0.1000		8.50642e-08		-1.05836e-08		0e-3
  -0.0000		8.50654e-08		-1.06125e-08		0e-3
  0.1000		8.51858e-08		-1.06288e-08		0e-3
  0.2000		8.57198e-08		-1.06843e-08		0e-3
  0.3000		8.78823e-08		-1.05675e-08		0e-3
  0.4000		9.50956e-08		-1.06239e-08		0e-3
  0.5000		1.18742e-07		-1.05755e-08		0e-3
  0.6000		1.97649e-07		-1.05973e-08		0e-3
  0.7000		4.65201e-07		-1.06293e-08		0e-3
  0.8000		1.34650e-06		-1.06752e-08		0e-3
  0.9000		3.90552e-06		-1.06789e-08		0e-3
  1.0000		1.00718e-05		-1.06732e-08		0e-3
  1.1000		2.22029e-05		-1.05628e-08		0e-3
  1.2000		4.22916e-05		-1.06313e-08		0e-3
  1.3000		7.14541e-05		-1.06114e-08		0e-3
  1.4000		1.10507e-04		-1.05683e-08		0e-3
  1.5000		1.59657e-04		-1.06204e-08		0e-3
  1.6000		2.18749e-04		-1.06359e-08		0e-3
  1.7000		2.87688e-04		-1.06339e-08		0e-3
  1.8000		3.66616e-04		-1.07117e-08		0e-3
  1.9000		4.55427e-04		-1.05814e-08		0e-3
  2.0000		5.54216e-04		-1.06647e-08		0e-3
  2.1000		6.63102e-04		-1.05551e-08		0e-3
  2.2000		7.82275e-04		-1.06069e-08		0e-3
  2.3000		9.11891e-04		-1.05044e-08		0e-3
  2.4000		1.05208e-03		-1.07005e-08		0e-3
  2.5000		1.20279e-03		-1.06885e-08		0e-3
  2.6000		1.36437e-03		-1.05653e-08		0e-3
  2.7000		1.53706e-03		-1.06043e-08		0e-3
  2.8000		1.72015e-03		-1.06208e-08		0e-3
  2.9000		1.91453e-03		-1.06378e-08		0e-3
  3.0000		2.11927e-03		-1.06431e-08		0e-3
  3.1000		2.33468e-03		-1.05231e-08		0e-3
  3.2000		2.56040e-03		-1.06189e-08		0e-3
  3.3000		2.79671e-03		-1.05673e-08		0e-3
  3.4000		3.04269e-03		-1.05594e-08		0e-3
  3.5000		3.29913e-03		-1.06086e-08		0e-3
  3.6000		3.56529e-03		-1.06174e-08		0e-3
  3.7000		3.84029e-03		-1.05803e-08		0e-3
  3.8000		4.12604e-03		-1.06492e-08		0e-3
  3.9000		4.42133e-03		-1.05052e-08		0e-3
  4.0000		4.72574e-03		-1.06010e-08		0e-3
  4.1000		5.16069e-03		-1.05828e-08		0e-3
  4.2000		5.48148e-03		-1.05814e-08		0e-3
  4.3000		5.80454e-03		-1.05824e-08		0e-3
  4.4000		6.14512e-03		-1.06653e-08		0e-3
  4.5000		6.49476e-03		-1.05412e-08		0e-3
  4.6000		6.84464e-03		-1.05852e-08		0e-3
  4.7000		7.21037e-03		-1.06063e-08		0e-3
  4.8000		7.58338e-03		-1.06021e-08		0e-3
  4.9000		7.96318e-03		-1.04679e-08		0e-3
  5.0000		8.35383e-03		-1.06695e-08		0e-3
END_DB

BEGIN_DB
 ICCAP_VAR vd	4.0100
 ICCAP_VAR vb	1.0000
 ICCAP_VAR ve	0
 ICCAP_VAR vs	0

 #vg              id              ig              ib
  -1.0000		9.80747e-08		-1.06481e-08		0e-3
  -0.9000		9.70554e-08		-1.06633e-08		0e-3
  -0.8000		9.66656e-08		-1.06792e-08		0e-3
  -0.7000		9.64403e-08		-1.06909e-08		0e-3
  -0.6000		9.63140e-08		-1.06469e-08		0e-3
  -0.5000		9.62436e-08		-1.06665e-08		0e-3
  -0.4000		9.61971e-08		-1.05780e-08		0e-3
  -0.3000		9.60195e-08		-1.06922e-08		0e-3
  -0.2000		9.62400e-08		-1.06478e-08		0e-3
  -0.1000		9.61626e-08		-1.06133e-08		0e-3
  -0.0000		9.61757e-08		-1.06063e-08		0e-3
  0.1000		9.61268e-08		-1.06431e-08		0e-3
  0.2000		9.65297e-08		-1.06549e-08		0e-3
  0.3000		9.88555e-08		-1.06170e-08		0e-3
  0.4000		1.06604e-07		-1.06816e-08		0e-3
  0.5000		1.32711e-07		-1.06739e-08		0e-3
  0.6000		2.20369e-07		-1.06033e-08		0e-3
  0.7000		5.26392e-07		-1.06368e-08		0e-3
  0.8000		1.58881e-06		-1.06114e-08		0e-3
  0.9000		5.12099e-06		-1.06050e-08		0e-3
  1.0000		1.50504e-05		-1.06785e-08		0e-3
  1.1000		3.56660e-05		-1.04233e-08		0e-3
  1.2000		6.81639e-05		-1.05878e-08		0e-3
  1.3000		1.12271e-04		-1.05699e-08		0e-3
  1.4000		1.67263e-04		-1.05727e-08		0e-3
  1.5000		2.32530e-04		-1.06411e-08		0e-3
  1.6000		3.07643e-04		-1.06388e-08		0e-3
  1.7000		3.92282e-04		-1.05528e-08		0e-3
  1.8000		4.86326e-04		-1.06151e-08		0e-3
  1.9000		5.89383e-04		-1.06432e-08		0e-3
  2.0000		7.01344e-04		-1.06295e-08		0e-3
  2.1000		8.22103e-04		-1.06250e-08		0e-3
  2.2000		9.51457e-04		-1.06163e-08		0e-3
  2.3000		1.08917e-03		-1.05896e-08		0e-3
  2.4000		1.23552e-03		-1.06047e-08		0e-3
  2.5000		1.39005e-03		-1.06326e-08		0e-3
  2.6000		1.55280e-03		-1.06077e-08		0e-3
  2.7000		1.72387e-03		-1.06237e-08		0e-3
  2.8000		1.90302e-03		-1.06056e-08		0e-3
  2.9000		2.09078e-03		-1.06251e-08		0e-3
  3.0000		2.28696e-03		-1.05909e-08		0e-3
  3.1000		2.49164e-03		-1.05969e-08		0e-3
  3.2000		2.70555e-03		-1.06126e-08		0e-3
  3.3000		2.92856e-03		-1.05373e-08		0e-3
  3.4000		3.16112e-03		-1.06632e-08		0e-3
  3.5000		3.40416e-03		-1.06125e-08		0e-3
  3.6000		3.65764e-03		-1.06155e-08		0e-3
  3.7000		3.92226e-03		-1.06329e-08		0e-3
  3.8000		4.19827e-03		-1.05907e-08		0e-3
  3.9000		4.48555e-03		-1.05495e-08		0e-3
  4.0000		4.78406e-03		-1.05832e-08		0e-3
  4.1000		5.23496e-03		-1.06769e-08		0e-3
  4.2000		5.54311e-03		-1.06009e-08		0e-3
  4.3000		5.87785e-03		-1.05777e-08		0e-3
  4.4000		6.23441e-03		-1.06436e-08		0e-3
  4.5000		6.56331e-03		-1.05888e-08		0e-3
  4.6000		6.92785e-03		-1.06685e-08		0e-3
  4.7000		7.28130e-03		-1.06201e-08		0e-3
  4.8000		7.68077e-03		-1.05762e-08		0e-3
  4.9000		8.05712e-03		-1.06212e-08		0e-3
  5.0000		8.44061e-03		-1.06114e-08		0e-3
END_DB

BEGIN_DB
 ICCAP_VAR vd	5.0000
 ICCAP_VAR vb	1.0000
 ICCAP_VAR ve	0
 ICCAP_VAR vs	0

 #vg              id              ig              ib
  -1.0000		1.09487e-07		-1.07454e-08		0e-3
  -0.9000		1.08157e-07		-1.06636e-08		0e-3
  -0.8000		1.07561e-07		-1.06246e-08		0e-3
  -0.7000		1.07170e-07		-1.06895e-08		0e-3
  -0.6000		1.06838e-07		-1.06848e-08		0e-3
  -0.5000		1.06584e-07		-1.06317e-08		0e-3
  -0.4000		1.06474e-07		-1.05907e-08		0e-3
  -0.3000		1.06140e-07		-1.06349e-08		0e-3
  -0.2000		1.06068e-07		-1.06146e-08		0e-3
  -0.1000		1.06003e-07		-1.06320e-08		0e-3
  -0.0000		1.06027e-07		-1.06249e-08		0e-3
  0.1000		1.06053e-07		-1.06261e-08		0e-3
  0.2000		1.06800e-07		-1.06395e-08		0e-3
  0.3000		1.09241e-07		-1.06246e-08		0e-3
  0.4000		1.18135e-07		-1.06083e-08		0e-3
  0.5000		1.47625e-07		-1.05628e-08		0e-3
  0.6000		2.50683e-07		-1.05789e-08		0e-3
  0.7000		6.51455e-07		-1.05983e-08		0e-3
  0.8000		2.54906e-06		-1.06114e-08		0e-3
  0.9000		1.19220e-05		-1.05561e-08		0e-3
  1.0000		3.59930e-05		-1.05952e-08		0e-3
  1.1000		7.36475e-05		-1.06248e-08		0e-3
  1.2000		1.23751e-04		-1.06570e-08		0e-3
  1.3000		1.85084e-04		-1.06575e-08		0e-3
  1.4000		2.57003e-04		-1.06090e-08		0e-3
  1.5000		3.39139e-04		-1.05134e-08		0e-3
  1.6000		4.30930e-04		-1.05920e-08		0e-3
  1.7000		5.32103e-04		-1.05463e-08		0e-3
  1.8000		6.42490e-04		-1.05766e-08		0e-3
  1.9000		7.62093e-04		-1.05876e-08		0e-3
  2.0000		8.90136e-04		-1.07144e-08		0e-3
  2.1000		1.02713e-03		-1.06089e-08		0e-3
  2.2000		1.17245e-03		-1.06348e-08		0e-3
  2.3000		1.32631e-03		-1.06341e-08		0e-3
  2.4000		1.48848e-03		-1.06847e-08		0e-3
  2.5000		1.65883e-03		-1.05677e-08		0e-3
  2.6000		1.83734e-03		-1.05777e-08		0e-3
  2.7000		2.02408e-03		-1.05926e-08		0e-3
  2.8000		2.21852e-03		-1.05768e-08		0e-3
  2.9000		2.42128e-03		-1.06317e-08		0e-3
  3.0000		2.63165e-03		-1.06314e-08		0e-3
  3.1000		2.84975e-03		-1.06264e-08		0e-3
  3.2000		3.07584e-03		-1.06053e-08		0e-3
  3.3000		3.30940e-03		-1.06177e-08		0e-3
  3.4000		3.55035e-03		-1.05690e-08		0e-3
  3.5000		3.79915e-03		-1.05916e-08		0e-3
  3.6000		4.05532e-03		-1.06077e-08		0e-3
  3.7000		4.31861e-03		-1.05582e-08		0e-3
  3.8000		4.58925e-03		-1.06632e-08		0e-3
  3.9000		4.86748e-03		-1.06031e-08		0e-3
  4.0000		5.27430e-03		-1.05894e-08		0e-3
  4.1000		5.55575e-03		-1.06127e-08		0e-3
  4.2000		5.85079e-03		-1.05966e-08		0e-3
  4.3000		6.16145e-03		-1.05330e-08		0e-3
  4.4000		6.48117e-03		-1.05556e-08		0e-3
  4.5000		6.79982e-03		-1.05804e-08		0e-3
  4.6000		7.14290e-03		-1.06401e-08		0e-3
  4.7000		7.47776e-03		-1.06480e-08		0e-3
  4.8000		7.83455e-03		-1.06764e-08		0e-3
  4.9000		8.20959e-03		-1.06930e-08		0e-3
  5.0000		8.57389e-03		-1.06333e-08		0e-3
END_DB