! VERSION = 6.00
BEGIN_HEADER
 ICCAP_INPUTS
  vg         V  G GROUND SMU2 1E-005 LIN        1    1          -5          7   -1       
  vb         V  B GROUND SMU4 0.01 LIN        2    0          1         1    2        
  vd         V  D GROUND SMU1 0.1 LIN        3    -0.05       -5          6    -0.99      
  vs         V  S GROUND SMU3 0.1 CON        0
  ve         V  E GROUND SMU5 0.1 CON        0
 ICCAP_OUTPUTS
  id         I  D GROUND SMU1 B
  ib         I  D GROUND SMU4 B
  ig         I  D GROUND SMU2 B
END_HEADER


BEGIN_DB
 ICCAP_VAR vd	-0.0500
 ICCAP_VAR vb	-0.0000
 ICCAP_VAR ve	0
 ICCAP_VAR vs	0

 #vg              id              ig              ib
  1.0000		-3.63111e-10		-8.41856e-09		0e-3
  0.0000		-7.21812e-10		-1.14660e-08		0e-3
  -1.0000		-1.52004e-09		-1.45085e-08		0e-3
  -2.0000		-2.49923e-05		-1.10567e-08		0e-3
  -3.0000		-8.93831e-05		-1.14446e-08		0e-3
  -4.0000		-1.43421e-04		-1.17669e-08		0e-3
  -5.0000		-1.90628e-04		-1.19751e-08		0e-3
END_DB

BEGIN_DB
 ICCAP_VAR vd	-1.0400
 ICCAP_VAR vb	-0.0000
 ICCAP_VAR ve	0
 ICCAP_VAR vs	0

 #vg              id              ig              ib
  1.0000		-6.64473e-10		-8.77345e-09		0e-3
  0.0000		-6.76632e-10		-9.50778e-09		0e-3
  -1.0000		-7.92623e-10		-1.27090e-08		0e-3
  -2.0000		-1.01948e-04		-9.93025e-09		0e-3
  -3.0000		-1.05162e-03		-1.29726e-08		0e-3
  -4.0000		-2.26414e-03		-1.11105e-08		0e-3
  -5.0000		-3.31571e-03		-1.47728e-08		0e-3
END_DB

BEGIN_DB
 ICCAP_VAR vd	-2.0300
 ICCAP_VAR vb	-0.0000
 ICCAP_VAR ve	0
 ICCAP_VAR vs	0

 #vg              id              ig              ib
  1.0000		-9.32932e-10		-6.96468e-10		0e-3
  0.0000		-7.99060e-10		-5.91493e-09		0e-3
  -1.0000		-7.56383e-10		-8.91995e-09		0e-3
  -2.0000		-1.05000e-04		-1.09825e-08		0e-3
  -3.0000		-1.11870e-03		-1.24809e-08		0e-3
  -4.0000		-2.99739e-03		-1.11209e-08		0e-3
  -5.0000		-5.01955e-03		-1.14539e-08		0e-3
END_DB

BEGIN_DB
 ICCAP_VAR vd	-3.0200
 ICCAP_VAR vb	-0.0000
 ICCAP_VAR ve	0
 ICCAP_VAR vs	0

 #vg              id              ig              ib
  1.0000		-1.04666e-09		-2.96825e-09		0e-3
  0.0000		-1.10030e-09		-5.84292e-09		0e-3
  -1.0000		-1.07646e-09		-1.00882e-08		0e-3
  -2.0000		-1.07920e-04		-1.04120e-08		0e-3
  -3.0000		-1.14371e-03		-1.74030e-08		0e-3
  -4.0000		-3.09988e-03		-1.49819e-08		0e-3
  -5.0000		-5.62203e-03		-1.10425e-08		0e-3
END_DB

BEGIN_DB
 ICCAP_VAR vd	-4.0100
 ICCAP_VAR vb	-0.0000
 ICCAP_VAR ve	0
 ICCAP_VAR vs	0

 #vg              id              ig              ib
  1.0000		-1.21415e-09		-6.89805e-10		0e-3
  0.0000		-1.05715e-09		-6.73950e-09		0e-3
  -1.0000		-1.06001e-09		-9.79257e-09		0e-3
  -2.0000		-1.10054e-04		-1.00285e-08		0e-3
  -3.0000		-1.16400e-03		-1.07510e-08		0e-3
  -4.0000		-3.15939e-03		-1.20028e-08		0e-3
  -5.0000		-5.75840e-03		-1.14949e-08		0e-3
END_DB

BEGIN_DB
 ICCAP_VAR vd	-5.0000
 ICCAP_VAR vb	-0.0000
 ICCAP_VAR ve	0
 ICCAP_VAR vs	0

 #vg              id              ig              ib
  1.0000		-1.36936e-09		-1.37573e-09		0e-3
  0.0000		-1.16384e-09		-6.42419e-09		0e-3
  -1.0000		-1.18673e-09		-8.36432e-09		0e-3
  -2.0000		-1.15144e-04		-9.44722e-09		0e-3
  -3.0000		-1.19390e-03		-1.06109e-08		0e-3
  -4.0000		-3.21407e-03		-1.17301e-08		0e-3
  -5.0000		-5.84292e-03		-1.25453e-08		0e-3
END_DB