! VERSION = 6.00
BEGIN_HEADER
 ICCAP_INPUTS
  vg         V  G GROUND SMU2 1E-005 LIN        1    -1          5          61   0.1       
  vb         V  B GROUND SMU4 0.01 LIN        2    1          1         1    1        
  vd         V  D GROUND SMU1 0.1 LIN        3    0.05       5          6    0.99      
  vs         V  S GROUND SMU3 0.1 CON        0
  ve         V  E GROUND SMU5 0.1 CON        0
 ICCAP_OUTPUTS
  id         I  D GROUND SMU1 B
  ib         I  D GROUND SMU4 B
  ig         I  D GROUND SMU2 B
END_HEADER


BEGIN_DB
 ICCAP_VAR vd	0.0500
 ICCAP_VAR vb	1.0000
 ICCAP_VAR ve	0
 ICCAP_VAR vs	0

 #vg              id              ig              ib
  -1.0000		9.46522e-10		-1.07421e-08		0e-3
  -0.9000		3.42250e-10		-1.07504e-08		0e-3
  -0.8000		2.05278e-10		-1.07601e-08		0e-3
  -0.7000		9.57251e-11		-1.07653e-08		0e-3
  -0.6000		1.64032e-10		-1.07796e-08		0e-3
  -0.5000		-7.03335e-11		-1.07677e-08		0e-3
  -0.4000		-8.78572e-11		-1.06959e-08		0e-3
  -0.3000		-6.33001e-11		-1.07276e-08		0e-3
  -0.2000		1.25170e-11		-1.07417e-08		0e-3
  -0.1000		1.16539e-09		-1.07617e-08		0e-3
  -0.0000		-4.06861e-10		-1.07818e-08		0e-3
  0.1000		2.44379e-11		-1.07323e-08		0e-3
  0.2000		2.81334e-10		-1.07627e-08		0e-3
  0.3000		7.45058e-11		-1.07520e-08		0e-3
  0.4000		-7.84397e-11		-1.07032e-08		0e-3
  0.5000		1.60933e-11		-1.06896e-08		0e-3
  0.6000		3.73721e-10		-1.07470e-08		0e-3
  0.7000		2.50268e-09		-1.07431e-08		0e-3
  0.8000		1.37609e-08		-1.07301e-08		0e-3
  0.9000		6.96874e-08		-1.06647e-08		0e-3
  1.0000		3.41785e-07		-1.06938e-08		0e-3
  1.1000		1.44461e-06		-1.07085e-08		0e-3
  1.2000		4.55979e-06		-1.07208e-08		0e-3
  1.3000		1.05523e-05		-1.07108e-08		0e-3
  1.4000		1.91352e-05		-1.07224e-08		0e-3
  1.5000		2.94832e-05		-1.06804e-08		0e-3
  1.6000		4.08486e-05		-1.06883e-08		0e-3
  1.7000		5.25475e-05		-1.06996e-08		0e-3
  1.8000		6.47664e-05		-1.06454e-08		0e-3
  1.9000		7.69854e-05		-1.06803e-08		0e-3
  2.0000		8.91685e-05		-1.06267e-08		0e-3
  2.1000		1.01483e-04		-1.07026e-08		0e-3
  2.2000		1.13583e-04		-1.06978e-08		0e-3
  2.3000		1.25527e-04		-1.07440e-08		0e-3
  2.4000		1.37401e-04		-1.06984e-08		0e-3
  2.5000		1.49167e-04		-1.07174e-08		0e-3
  2.6000		1.60682e-04		-1.07104e-08		0e-3
  2.7000		1.72150e-04		-1.07191e-08		0e-3
  2.8000		1.83368e-04		-1.06615e-08		0e-3
  2.9000		1.94609e-04		-1.06547e-08		0e-3
  3.0000		2.05565e-04		-1.07110e-08		0e-3
  3.1000		2.16413e-04		-1.06958e-08		0e-3
  3.2000		2.27213e-04		-1.06931e-08		0e-3
  3.3000		2.37775e-04		-1.07089e-08		0e-3
  3.4000		2.48325e-04		-1.07113e-08		0e-3
  3.5000		2.58684e-04		-1.06900e-08		0e-3
  3.6000		2.68924e-04		-1.07208e-08		0e-3
  3.7000		2.79021e-04		-1.07149e-08		0e-3
  3.8000		2.88987e-04		-1.06477e-08		0e-3
  3.9000		2.98858e-04		-1.07381e-08		0e-3
  4.0000		3.08585e-04		-1.07061e-08		0e-3
  4.1000		3.18253e-04		-1.07491e-08		0e-3
  4.2000		3.27933e-04		-1.07499e-08		0e-3
  4.3000		3.37291e-04		-1.07219e-08		0e-3
  4.4000		3.46744e-04		-1.06565e-08		0e-3
  4.5000		3.56007e-04		-1.07157e-08		0e-3
  4.6000		3.65150e-04		-1.07093e-08		0e-3
  4.7000		3.74138e-04		-1.06891e-08		0e-3
  4.8000		3.83234e-04		-1.06909e-08		0e-3
  4.9000		3.92115e-04		-1.07156e-08		0e-3
  5.0000		4.01008e-04		-1.06667e-08		0e-3
END_DB

BEGIN_DB
 ICCAP_VAR vd	1.0400
 ICCAP_VAR vb	1.0000
 ICCAP_VAR ve	0
 ICCAP_VAR vs	0

 #vg              id              ig              ib
  -1.0000		6.20317e-09		-1.08471e-08		0e-3
  -0.9000		2.87533e-09		-1.07960e-08		0e-3
  -0.8000		2.15340e-09		-1.07849e-08		0e-3
  -0.7000		1.71757e-09		-1.07647e-08		0e-3
  -0.6000		1.47092e-09		-1.07749e-08		0e-3
  -0.5000		1.45793e-09		-1.08039e-08		0e-3
  -0.4000		1.34087e-09		-1.07459e-08		0e-3
  -0.3000		1.31249e-09		-1.07487e-08		0e-3
  -0.2000		1.15228e-09		-1.07614e-08		0e-3
  -0.1000		1.17397e-09		-1.07040e-08		0e-3
  -0.0000		1.04606e-09		-1.07071e-08		0e-3
  0.1000		1.01376e-09		-1.07492e-08		0e-3
  0.2000		1.03557e-09		-1.07394e-08		0e-3
  0.3000		9.92656e-10		-1.07517e-08		0e-3
  0.4000		1.10435e-09		-1.07620e-08		0e-3
  0.5000		1.27864e-09		-1.07671e-08		0e-3
  0.6000		2.68829e-09		-1.07582e-08		0e-3
  0.7000		8.49640e-09		-1.07374e-08		0e-3
  0.8000		3.87483e-08		-1.07580e-08		0e-3
  0.9000		1.92500e-07		-1.06789e-08		0e-3
  1.0000		9.17673e-07		-1.06956e-08		0e-3
  1.1000		3.63870e-06		-1.06949e-08		0e-3
  1.2000		1.11049e-05		-1.06932e-08		0e-3
  1.3000		2.65476e-05		-1.07039e-08		0e-3
  1.4000		5.22733e-05		-1.07015e-08		0e-3
  1.5000		9.03130e-05		-1.07287e-08		0e-3
  1.6000		1.41549e-04		-1.07589e-08		0e-3
  1.7000		2.06590e-04		-1.07685e-08		0e-3
  1.8000		2.85649e-04		-1.07307e-08		0e-3
  1.9000		3.78823e-04		-1.07014e-08		0e-3
  2.0000		4.86302e-04		-1.06806e-08		0e-3
  2.1000		6.08087e-04		-1.07042e-08		0e-3
  2.2000		7.44021e-04		-1.07813e-08		0e-3
  2.3000		8.94058e-04		-1.07664e-08		0e-3
  2.4000		1.05747e-03		-1.07282e-08		0e-3
  2.5000		1.23467e-03		-1.08048e-08		0e-3
  2.6000		1.42485e-03		-1.07387e-08		0e-3
  2.7000		1.62637e-03		-1.07416e-08		0e-3
  2.8000		1.83818e-03		-1.06922e-08		0e-3
  2.9000		2.05750e-03		-1.07050e-08		0e-3
  3.0000		2.28218e-03		-1.07605e-08		0e-3
  3.1000		2.51136e-03		-1.07255e-08		0e-3
  3.2000		2.74205e-03		-1.07713e-08		0e-3
  3.3000		2.97257e-03		-1.07290e-08		0e-3
  3.4000		3.20250e-03		-1.07529e-08		0e-3
  3.5000		3.43122e-03		-1.07476e-08		0e-3
  3.6000		3.65760e-03		-1.06877e-08		0e-3
  3.7000		3.88217e-03		-1.07251e-08		0e-3
  3.8000		4.10464e-03		-1.07180e-08		0e-3
  3.9000		4.32407e-03		-1.07117e-08		0e-3
  4.0000		4.54168e-03		-1.07496e-08		0e-3
  4.1000		4.75649e-03		-1.07515e-08		0e-3
  4.2000		4.96887e-03		-1.07599e-08		0e-3
  4.3000		5.32091e-03		-1.07487e-08		0e-3
  4.4000		5.51629e-03		-1.07288e-08		0e-3
  4.5000		5.70416e-03		-1.06770e-08		0e-3
  4.6000		5.90682e-03		-1.07459e-08		0e-3
  4.7000		6.10065e-03		-1.07228e-08		0e-3
  4.8000		6.30915e-03		-1.07327e-08		0e-3
  4.9000		6.52897e-03		-1.07440e-08		0e-3
  5.0000		6.71422e-03		-1.07948e-08		0e-3
END_DB

BEGIN_DB
 ICCAP_VAR vd	2.0300
 ICCAP_VAR vb	1.0000
 ICCAP_VAR ve	0
 ICCAP_VAR vs	0

 #vg              id              ig              ib
  -1.0000		6.80649e-09		-1.08323e-08		0e-3
  -0.9000		3.47912e-09		-1.07754e-08		0e-3
  -0.8000		2.66314e-09		-1.07725e-08		0e-3
  -0.7000		2.15626e-09		-1.07073e-08		0e-3
  -0.6000		2.07639e-09		-1.08213e-08		0e-3
  -0.5000		1.79088e-09		-1.07412e-08		0e-3
  -0.4000		1.76466e-09		-1.07223e-08		0e-3
  -0.3000		1.71018e-09		-1.07386e-08		0e-3
  -0.2000		1.61898e-09		-1.06933e-08		0e-3
  -0.1000		1.56820e-09		-1.07342e-08		0e-3
  -0.0000		1.55711e-09		-1.07372e-08		0e-3
  0.1000		1.48475e-09		-1.07239e-08		0e-3
  0.2000		1.49918e-09		-1.06914e-08		0e-3
  0.3000		1.48547e-09		-1.07688e-08		0e-3
  0.4000		1.43743e-09		-1.06916e-08		0e-3
  0.5000		1.74665e-09		-1.07193e-08		0e-3
  0.6000		3.26252e-09		-1.07070e-08		0e-3
  0.7000		1.00523e-08		-1.06416e-08		0e-3
  0.8000		4.50469e-08		-1.05926e-08		0e-3
  0.9000		2.21566e-07		-1.06299e-08		0e-3
  1.0000		1.04172e-06		-1.07002e-08		0e-3
  1.1000		4.07087e-06		-1.07881e-08		0e-3
  1.2000		1.22489e-05		-1.07323e-08		0e-3
  1.3000		2.88376e-05		-1.07077e-08		0e-3
  1.4000		5.60164e-05		-1.11198e-08		0e-3
  1.5000		9.54986e-05		-1.07608e-08		0e-3
  1.6000		1.47891e-04		-1.07626e-08		0e-3
  1.7000		2.13993e-04		-1.07640e-08		0e-3
  1.8000		2.94268e-04		-1.07676e-08		0e-3
  1.9000		3.88682e-04		-1.07582e-08		0e-3
  2.0000		4.97270e-04		-1.07329e-08		0e-3
  2.1000		6.20842e-04		-1.07111e-08		0e-3
  2.2000		7.58851e-04		-1.07003e-08		0e-3
  2.3000		9.11188e-04		-1.07261e-08		0e-3
  2.4000		1.07785e-03		-1.07564e-08		0e-3
  2.5000		1.25850e-03		-1.07257e-08		0e-3
  2.6000		1.45310e-03		-1.07658e-08		0e-3
  2.7000		1.66167e-03		-1.07687e-08		0e-3
  2.8000		1.88349e-03		-1.07596e-08		0e-3
  2.9000		2.11887e-03		-1.07144e-08		0e-3
  3.0000		2.36822e-03		-1.07273e-08		0e-3
  3.1000		2.62980e-03		-1.07418e-08		0e-3
  3.2000		2.90455e-03		-1.07321e-08		0e-3
  3.3000		3.19264e-03		-1.07273e-08		0e-3
  3.4000		3.49213e-03		-1.07330e-08		0e-3
  3.5000		3.80515e-03		-1.07267e-08		0e-3
  3.6000		4.12922e-03		-1.07964e-08		0e-3
  3.7000		4.46606e-03		-1.07161e-08		0e-3
  3.8000		4.81334e-03		-1.06950e-08		0e-3
  3.9000		5.30624e-03		-1.07198e-08		0e-3
  4.0000		5.67019e-03		-1.07362e-08		0e-3
  4.1000		6.05392e-03		-1.07453e-08		0e-3
  4.2000		6.41978e-03		-1.07286e-08		0e-3
  4.3000		6.81198e-03		-1.07100e-08		0e-3
  4.4000		7.20263e-03		-1.07476e-08		0e-3
  4.5000		7.61294e-03		-1.07346e-08		0e-3
  4.6000		8.01718e-03		-1.07732e-08		0e-3
  4.7000		8.42392e-03		-1.07058e-08		0e-3
  4.8000		8.82375e-03		-1.07685e-08		0e-3
  4.9000		9.19998e-03		-1.07102e-08		0e-3
  5.0000		9.59933e-03		-1.07218e-08		0e-3
END_DB

BEGIN_DB
 ICCAP_VAR vd	3.0200
 ICCAP_VAR vb	1.0000
 ICCAP_VAR ve	0
 ICCAP_VAR vs	0

 #vg              id              ig              ib
  -1.0000		6.08921e-09		-1.08821e-08		0e-3
  -0.9000		3.08394e-09		-1.07819e-08		0e-3
  -0.8000		2.51651e-09		-1.07770e-08		0e-3
  -0.7000		2.48909e-09		-1.07871e-08		0e-3
  -0.6000		1.98126e-09		-1.08216e-08		0e-3
  -0.5000		1.97411e-09		-1.07613e-08		0e-3
  -0.4000		1.60456e-09		-1.07599e-08		0e-3
  -0.3000		1.62482e-09		-1.07383e-08		0e-3
  -0.2000		1.59144e-09		-1.07418e-08		0e-3
  -0.1000		1.64986e-09		-1.07436e-08		0e-3
  -0.0000		1.57237e-09		-1.07509e-08		0e-3
  0.1000		1.60694e-09		-1.07857e-08		0e-3
  0.2000		1.59144e-09		-1.07456e-08		0e-3
  0.3000		1.62125e-09		-1.07749e-08		0e-3
  0.4000		1.69635e-09		-1.07608e-08		0e-3
  0.5000		2.01225e-09		-1.07353e-08		0e-3
  0.6000		3.70622e-09		-1.07282e-08		0e-3
  0.7000		1.18005e-08		-1.07541e-08		0e-3
  0.8000		5.28753e-08		-1.07414e-08		0e-3
  0.9000		2.82345e-07		-1.07116e-08		0e-3
  1.0000		1.80703e-06		-1.07291e-08		0e-3
  1.1000		1.06808e-05		-1.07328e-08		0e-3
  1.2000		3.41074e-05		-1.07068e-08		0e-3
  1.3000		7.17998e-05		-1.07189e-08		0e-3
  1.4000		1.22583e-04		-1.07262e-08		0e-3
  1.5000		1.85621e-04		-1.06707e-08		0e-3
  1.6000		2.60329e-04		-1.06882e-08		0e-3
  1.7000		3.46184e-04		-1.07092e-08		0e-3
  1.8000		4.42863e-04		-1.07210e-08		0e-3
  1.9000		5.50008e-04		-1.07261e-08		0e-3
  2.0000		6.67131e-04		-1.07292e-08		0e-3
  2.1000		7.94351e-04		-1.07462e-08		0e-3
  2.2000		9.31478e-04		-1.06519e-08		0e-3
  2.3000		1.07828e-03		-1.07145e-08		0e-3
  2.4000		1.23539e-03		-1.06910e-08		0e-3
  2.5000		1.40276e-03		-1.07168e-08		0e-3
  2.6000		1.58104e-03		-1.07118e-08		0e-3
  2.7000		1.77206e-03		-1.06719e-08		0e-3
  2.8000		1.97637e-03		-1.07503e-08		0e-3
  2.9000		2.19551e-03		-1.06772e-08		0e-3
  3.0000		2.43114e-03		-1.06604e-08		0e-3
  3.1000		2.68332e-03		-1.06882e-08		0e-3
  3.2000		2.95175e-03		-1.07169e-08		0e-3
  3.3000		3.23633e-03		-1.06858e-08		0e-3
  3.4000		3.53587e-03		-1.06897e-08		0e-3
  3.5000		3.84992e-03		-1.06725e-08		0e-3
  3.6000		4.17712e-03		-1.07270e-08		0e-3
  3.7000		4.51740e-03		-1.06804e-08		0e-3
  3.8000		4.86919e-03		-1.06987e-08		0e-3
  3.9000		5.37682e-03		-1.07028e-08		0e-3
  4.0000		5.75101e-03		-1.06958e-08		0e-3
  4.1000		6.15263e-03		-1.07139e-08		0e-3
  4.2000		6.54101e-03		-1.06839e-08		0e-3
  4.3000		6.96445e-03		-1.06614e-08		0e-3
  4.4000		7.37500e-03		-1.06775e-08		0e-3
  4.5000		7.79223e-03		-1.07330e-08		0e-3
  4.6000		8.23879e-03		-1.06980e-08		0e-3
  4.7000		8.71480e-03		-1.06834e-08		0e-3
  4.8000		9.17137e-03		-1.06961e-08		0e-3
  4.9000		9.63259e-03		-1.07012e-08		0e-3
  5.0000		1.01111e-02		-1.06783e-08		0e-3
END_DB

BEGIN_DB
 ICCAP_VAR vd	4.0100
 ICCAP_VAR vb	1.0000
 ICCAP_VAR ve	0
 ICCAP_VAR vs	0

 #vg              id              ig              ib
  -1.0000		7.20286e-09		-1.08086e-08		0e-3
  -0.9000		4.41349e-09		-1.06939e-08		0e-3
  -0.8000		3.39782e-09		-1.07098e-08		0e-3
  -0.7000		3.06153e-09		-1.07578e-08		0e-3
  -0.6000		2.90895e-09		-1.07419e-08		0e-3
  -0.5000		2.66218e-09		-1.07502e-08		0e-3
  -0.4000		2.68841e-09		-1.07237e-08		0e-3
  -0.3000		2.46382e-09		-1.07068e-08		0e-3
  -0.2000		2.39825e-09		-1.06181e-08		0e-3
  -0.1000		2.32100e-09		-1.06388e-08		0e-3
  -0.0000		2.40707e-09		-1.06573e-08		0e-3
  0.1000		2.22695e-09		-1.06741e-08		0e-3
  0.2000		2.17998e-09		-1.06827e-08		0e-3
  0.3000		2.27892e-09		-1.06803e-08		0e-3
  0.4000		2.32279e-09		-1.06920e-08		0e-3
  0.5000		2.77936e-09		-1.06468e-08		0e-3
  0.6000		4.67527e-09		-1.06310e-08		0e-3
  0.7000		1.44157e-08		-1.05941e-08		0e-3
  0.8000		7.96401e-08		-1.06705e-08		0e-3
  0.9000		1.51173e-06		-1.06618e-08		0e-3
  1.0000		1.77571e-05		-1.07067e-08		0e-3
  1.1000		5.15819e-05		-1.06626e-08		0e-3
  1.2000		1.00064e-04		-1.06241e-08		0e-3
  1.3000		1.62327e-04		-1.06568e-08		0e-3
  1.4000		2.37358e-04		-1.06689e-08		0e-3
  1.5000		3.24726e-04		-1.06472e-08		0e-3
  1.6000		4.24278e-04		-1.05742e-08		0e-3
  1.7000		5.35262e-04		-1.06220e-08		0e-3
  1.8000		6.57880e-04		-1.06258e-08		0e-3
  1.9000		7.91609e-04		-1.06003e-08		0e-3
  2.0000		9.36210e-04		-1.05864e-08		0e-3
  2.1000		1.09161e-03		-1.05761e-08		0e-3
  2.2000		1.25768e-03		-1.06345e-08		0e-3
  2.3000		1.43393e-03		-1.06250e-08		0e-3
  2.4000		1.62057e-03		-1.06423e-08		0e-3
  2.5000		1.81702e-03		-1.06529e-08		0e-3
  2.6000		2.02228e-03		-1.08054e-08		0e-3
  2.7000		2.23851e-03		-1.06589e-08		0e-3
  2.8000		2.46372e-03		-1.06696e-08		0e-3
  2.9000		2.69831e-03		-1.07061e-08		0e-3
  3.0000		2.94183e-03		-1.06162e-08		0e-3
  3.1000		3.19413e-03		-1.06331e-08		0e-3
  3.2000		3.45508e-03		-1.07174e-08		0e-3
  3.3000		3.72472e-03		-1.06595e-08		0e-3
  3.4000		4.00252e-03		-1.04647e-08		0e-3
  3.5000		4.28908e-03		-1.07144e-08		0e-3
  3.6000		4.58394e-03		-1.06813e-08		0e-3
  3.7000		4.88746e-03		-1.06896e-08		0e-3
  3.8000		5.34952e-03		-1.08080e-08		0e-3
  3.9000		5.66113e-03		-1.07160e-08		0e-3
  4.0000		6.01459e-03		-1.06201e-08		0e-3
  4.1000		6.34611e-03		-1.06024e-08		0e-3
  4.2000		6.71065e-03		-1.05920e-08		0e-3
  4.3000		7.05230e-03		-1.06152e-08		0e-3
  4.4000		7.48229e-03		-1.06237e-08		0e-3
  4.5000		7.87628e-03		-1.06713e-08		0e-3
  4.6000		8.31091e-03		-1.06822e-08		0e-3
  4.7000		8.76272e-03		-1.06807e-08		0e-3
  4.8000		9.21738e-03		-1.05335e-08		0e-3
  4.9000		9.68349e-03		-1.03881e-08		0e-3
  5.0000		1.01742e-02		-1.07266e-08		0e-3
END_DB

BEGIN_DB
 ICCAP_VAR vd	5.0000
 ICCAP_VAR vb	1.0000
 ICCAP_VAR ve	0
 ICCAP_VAR vs	0

 #vg              id              ig              ib
  -1.0000		8.12435e-09		-1.06171e-08		0e-3
  -0.9000		5.02574e-09		-1.07496e-08		0e-3
  -0.8000		4.21488e-09		-1.07176e-08		0e-3
  -0.7000		3.74556e-09		-1.07061e-08		0e-3
  -0.6000		3.63767e-09		-1.07436e-08		0e-3
  -0.5000		3.34716e-09		-1.07377e-08		0e-3
  -0.4000		3.29542e-09		-1.07037e-08		0e-3
  -0.3000		3.15535e-09		-1.07533e-08		0e-3
  -0.2000		3.11601e-09		-1.07185e-08		0e-3
  -0.1000		2.85149e-09		-1.06249e-08		0e-3
  -0.0000		2.93863e-09		-1.06630e-08		0e-3
  0.1000		2.83778e-09		-1.06726e-08		0e-3
  0.2000		2.90442e-09		-1.06606e-08		0e-3
  0.3000		2.89822e-09		-1.07303e-08		0e-3
  0.4000		3.07131e-09		-1.07423e-08		0e-3
  0.5000		3.43275e-09		-1.06875e-08		0e-3
  0.6000		5.78225e-09		-1.06586e-08		0e-3
  0.7000		2.18670e-08		-1.06833e-08		0e-3
  0.8000		7.35770e-07		-1.06601e-08		0e-3
  0.9000		1.93855e-05		-1.07424e-08		0e-3
  1.0000		5.75463e-05		-1.06990e-08		0e-3
  1.1000		1.11341e-04		-1.04895e-08		0e-3
  1.2000		1.79458e-04		-1.06632e-08		0e-3
  1.3000		2.61128e-04		-1.06785e-08		0e-3
  1.4000		3.55434e-04		-1.06550e-08		0e-3
  1.5000		4.62365e-04		-1.06318e-08		0e-3
  1.6000		5.81145e-04		-1.20122e-08		0e-3
  1.7000		7.11536e-04		-1.08175e-08		0e-3
  1.8000		8.53527e-04		-1.06118e-08		0e-3
  1.9000		1.00671e-03		-1.07825e-08		0e-3
  2.0000		1.17068e-03		-1.07517e-08		0e-3
  2.1000		1.34557e-03		-1.09920e-08		0e-3
  2.2000		1.53100e-03		-1.07031e-08		0e-3
  2.3000		1.72697e-03		-1.05972e-08		0e-3
  2.4000		1.93337e-03		-1.06997e-08		0e-3
  2.5000		2.15013e-03		-1.06716e-08		0e-3
  2.6000		2.37670e-03		-1.06990e-08		0e-3
  2.7000		2.61385e-03		-1.09241e-08		0e-3
  2.8000		2.86059e-03		-1.06739e-08		0e-3
  2.9000		3.11760e-03		-1.05995e-08		0e-3
  3.0000		3.38439e-03		-1.06449e-08		0e-3
  3.1000		3.66062e-03		-1.09181e-08		0e-3
  3.2000		3.94663e-03		-1.10947e-08		0e-3
  3.3000		4.24221e-03		-1.09383e-08		0e-3
  3.4000		4.54661e-03		-1.07796e-08		0e-3
  3.5000		4.86075e-03		-1.07198e-08		0e-3
  3.6000		5.31125e-03		-1.07247e-08		0e-3
  3.7000		5.66208e-03		-1.07356e-08		0e-3
  3.8000		6.00195e-03		-1.06833e-08		0e-3
  3.9000		6.33836e-03		-1.06999e-08		0e-3
  4.0000		6.71101e-03		-1.06325e-08		0e-3
  4.1000		7.06232e-03		-1.06748e-08		0e-3
  4.2000		7.44295e-03		-1.06916e-08		0e-3
  4.3000		7.82442e-03		-1.07342e-08		0e-3
  4.4000		8.21197e-03		-1.06938e-08		0e-3
  4.5000		8.57830e-03		-1.06106e-08		0e-3
  4.6000		8.98516e-03		-1.07074e-08		0e-3
  4.7000		9.39071e-03		-1.06519e-08		0e-3
  4.8000		9.81927e-03		-1.06583e-08		0e-3
  4.9000		1.02515e-02		-1.07180e-08		0e-3
  5.0000		1.06858e-02		-1.06856e-08		0e-3
END_DB