! VERSION = 6.00
BEGIN_HEADER
 ICCAP_INPUTS
  vg         V  G GROUND SMU2 1E-005 LIN        1    -1          5          7   1       
  vb         V  B GROUND SMU4 0.01 LIN        2    0          1         1    2        
  vd         V  D GROUND SMU1 0.1 LIN        3    0.05       5          6    0.99      
  vs         V  S GROUND SMU3 0.1 CON        0
  ve         V  E GROUND SMU5 0.1 CON        0
 ICCAP_OUTPUTS
  id         I  D GROUND SMU1 B
  ib         I  D GROUND SMU4 B
  ig         I  D GROUND SMU2 B
END_HEADER


BEGIN_DB
 ICCAP_VAR vd	0.0500
 ICCAP_VAR vb	0.0000
 ICCAP_VAR ve	0
 ICCAP_VAR vs	0

 #vg              id              ig              ib
  -1.0000		1.46182e-08		-1.07301e-08		0e-3
  0.0000		1.45452e-08		-8.98314e-09		0e-3
  1.0000		3.24529e-06		-1.06426e-08		0e-3
  2.0000		8.74075e-05		-1.01055e-08		0e-3
  3.0000		1.79267e-04		-1.09080e-08		0e-3
  4.0000		2.60806e-04		-1.06530e-08		0e-3
  5.0000		3.34001e-04		-1.37604e-08		0e-3
END_DB

BEGIN_DB
 ICCAP_VAR vd	1.0400
 ICCAP_VAR vb	0.0000
 ICCAP_VAR ve	0
 ICCAP_VAR vs	0

 #vg              id              ig              ib
  -1.0000		6.45804e-08		-1.07085e-08		0e-3
  0.0000		6.44481e-08		-1.07287e-08		0e-3
  1.0000		8.70359e-06		-1.06361e-08		0e-3
  2.0000		5.19824e-04		-1.05995e-08		0e-3
  3.0000		2.01713e-03		-1.06413e-08		0e-3
  4.0000		3.82391e-03		-1.06305e-08		0e-3
  5.0000		5.57446e-03		-1.06127e-08		0e-3
END_DB

BEGIN_DB
 ICCAP_VAR vd	2.0300
 ICCAP_VAR vb	0.0000
 ICCAP_VAR ve	0
 ICCAP_VAR vs	0

 #vg              id              ig              ib
  -1.0000		7.53736e-08		-1.07650e-08		0e-3
  0.0000		7.51579e-08		-1.06938e-08		0e-3
  1.0000		9.19725e-06		-1.06968e-08		0e-3
  2.0000		5.30779e-04		-1.06808e-08		0e-3
  3.0000		2.10239e-03		-1.06170e-08		0e-3
  4.0000		4.67936e-03		-1.05919e-08		0e-3
  5.0000		7.95662e-03		-1.05917e-08		0e-3
END_DB

BEGIN_DB
 ICCAP_VAR vd	3.0200
 ICCAP_VAR vb	0.0000
 ICCAP_VAR ve	0
 ICCAP_VAR vs	0

 #vg              id              ig              ib
  -1.0000		8.60929e-08		-1.06840e-08		0e-3
  0.0000		8.55780e-08		-1.07064e-08		0e-3
  1.0000		1.02484e-05		-1.06684e-08		0e-3
  2.0000		5.56993e-04		-1.06058e-08		0e-3
  3.0000		2.12893e-03		-1.06193e-08		0e-3
  4.0000		4.74455e-03		-1.06529e-08		0e-3
  5.0000		8.38816e-03		-1.06041e-08		0e-3
END_DB

BEGIN_DB
 ICCAP_VAR vd	4.0100
 ICCAP_VAR vb	0.0000
 ICCAP_VAR ve	0
 ICCAP_VAR vs	0

 #vg              id              ig              ib
  -1.0000		9.74786e-08		-1.05795e-08		0e-3
  0.0000		9.66024e-08		-1.06876e-08		0e-3
  1.0000		1.53001e-05		-1.06677e-08		0e-3
  2.0000		7.03442e-04		-1.06114e-08		0e-3
  3.0000		2.29528e-03		-1.06193e-08		0e-3
  4.0000		4.80180e-03		-1.06477e-08		0e-3
  5.0000		8.45766e-03		-1.06328e-08		0e-3
END_DB

BEGIN_DB
 ICCAP_VAR vd	5.0000
 ICCAP_VAR vb	0.0000
 ICCAP_VAR ve	0
 ICCAP_VAR vs	0

 #vg              id              ig              ib
  -1.0000		1.09779e-07		-1.06286e-08		0e-3
  0.0000		1.08368e-07		-1.06959e-08		0e-3
  1.0000		3.62830e-05		-1.05680e-08		0e-3
  2.0000		8.91745e-04		-1.06263e-08		0e-3
  3.0000		2.63962e-03		-1.06461e-08		0e-3
  4.0000		5.28228e-03		-1.06225e-08		0e-3
  5.0000		8.58557e-03		-1.06105e-08		0e-3
END_DB