! VERSION = 6.00
BEGIN_HEADER
 ICCAP_INPUTS
  vg         V  G GROUND SMU2 1E-005 LIN	2	0	5	26	0.2
  vb         V  B GROUND SMU4 0.01 LIN	3	1         1         1    1        
  vd         V  D GROUND SMU1 0.1 LIN	1	0          5          26   0.2       
  vs         V  S GROUND SMU3 0.1 CON        0
  ve         V  E GROUND SMU5 0.1 CON        0
 ICCAP_OUTPUTS
  id         I  D GROUND SMU1 B
  ib         I  D GROUND SMU4 B
  ig         I  D GROUND SMU2 B
END_HEADER


BEGIN_DB
 ICCAP_VAR vb	1.0000
 ICCAP_VAR vg	0.0000
 ICCAP_VAR ve	0
 ICCAP_VAR vs	0

 #vd              id              ib              ig
  0.0000		-5.55038e-10		0e-3		-1.06096e-08
  0.2000		4.53604e-08		0e-3		-1.06776e-08
  0.4000		5.43380e-08		0e-3		-1.07359e-08
  0.6000		5.81479e-08		0e-3		-1.26390e-08
  0.8000		5.99992e-08		0e-3		-1.07383e-08
  1.0000		6.27863e-08		0e-3		-1.06878e-08
  1.2000		6.51896e-08		0e-3		-1.07142e-08
  1.4000		6.73330e-08		0e-3		-1.05995e-08
  1.6000		6.95777e-08		0e-3		-1.06398e-08
  1.8000		7.17187e-08		0e-3		-1.06057e-08
  2.0000		7.37476e-08		0e-3		-1.06035e-08
  2.2000		7.58731e-08		0e-3		-1.05702e-08
  2.4000		7.79569e-08		0e-3		-1.06441e-08
  2.6000		8.00717e-08		0e-3		-1.06398e-08
  2.8000		8.21328e-08		0e-3		-1.06802e-08
  3.0000		8.42762e-08		0e-3		-1.06887e-08
  3.2000		8.63588e-08		0e-3		-1.06195e-08
  3.4000		8.83448e-08		0e-3		-1.05711e-08
  3.6000		9.05192e-08		0e-3		-1.05538e-08
  3.8000		9.17828e-08		0e-3		-1.03046e-08
  4.0000		9.49442e-08		0e-3		-1.07882e-08
  4.2000		9.67884e-08		0e-3		-1.05715e-08
  4.4000		9.91678e-08		0e-3		-1.07179e-08
  4.6000		1.01500e-07		0e-3		-1.06752e-08
  4.8000		1.03830e-07		0e-3		-1.07667e-08
  5.0000		1.06134e-07		0e-3		-1.06593e-08
END_DB

BEGIN_DB
 ICCAP_VAR vb	1.0000
 ICCAP_VAR vg	0.2000
 ICCAP_VAR ve	0
 ICCAP_VAR vs	0

 #vd              id              ib              ig
  0.0000		-6.83904e-10		0e-3		-1.05690e-08
  0.2000		4.55163e-08		0e-3		-1.05575e-08
  0.4000		5.47004e-08		0e-3		-1.05803e-08
  0.6000		5.80823e-08		0e-3		-1.05529e-08
  0.8000		6.07645e-08		0e-3		-1.06168e-08
  1.0000		6.31201e-08		0e-3		-1.06704e-08
  1.2000		6.54376e-08		0e-3		-1.06626e-08
  1.4000		6.75845e-08		0e-3		-1.06947e-08
  1.6000		6.97494e-08		0e-3		-1.06643e-08
  1.8000		7.17783e-08		0e-3		-1.07059e-08
  2.0000		7.38323e-08		0e-3		-1.05966e-08
  2.2000		7.58231e-08		0e-3		-1.06118e-08
  2.4000		7.78365e-08		0e-3		-1.06480e-08
  2.6000		7.98845e-08		0e-3		-1.06742e-08
  2.8000		8.19969e-08		0e-3		-1.06583e-08
  3.0000		8.41141e-08		0e-3		-1.06744e-08
  3.2000		8.61824e-08		0e-3		-1.06990e-08
  3.4000		8.83293e-08		0e-3		-1.07008e-08
  3.6000		9.04787e-08		0e-3		-1.06586e-08
  3.8000		9.24849e-08		0e-3		-1.06214e-08
  4.0000		9.46784e-08		0e-3		-1.06375e-08
  4.2000		9.68850e-08		0e-3		-1.06279e-08
  4.4000		9.90307e-08		0e-3		-1.06869e-08
  4.6000		1.01464e-07		0e-3		-1.07316e-08
  4.8000		1.03936e-07		0e-3		-1.06781e-08
  5.0000		1.06419e-07		0e-3		-1.07032e-08
END_DB

BEGIN_DB
 ICCAP_VAR vb	1.0000
 ICCAP_VAR vg	0.4000
 ICCAP_VAR ve	0
 ICCAP_VAR vs	0

 #vd              id              ib              ig
  0.0000		-8.07047e-10		0e-3		-1.05386e-08
  0.2000		5.16653e-08		0e-3		-1.06207e-08
  0.4000		6.16002e-08		0e-3		-1.06219e-08
  0.6000		6.53911e-08		0e-3		-1.06370e-08
  0.8000		6.83725e-08		0e-3		-1.06418e-08
  1.0000		7.08985e-08		0e-3		-1.06664e-08
  1.2000		7.34007e-08		0e-3		-1.06734e-08
  1.4000		7.58445e-08		0e-3		-1.05721e-08
  1.6000		7.80249e-08		0e-3		-1.05855e-08
  1.8000		8.03626e-08		0e-3		-1.04945e-08
  2.0000		8.26704e-08		0e-3		-1.05644e-08
  2.2000		8.48937e-08		0e-3		-1.06022e-08
  2.4000		8.72505e-08		0e-3		-1.06148e-08
  2.6000		8.95560e-08		0e-3		-1.06438e-08
  2.8000		9.18519e-08		0e-3		-1.06587e-08
  3.0000		9.41253e-08		0e-3		-1.06345e-08
  3.2000		9.64332e-08		0e-3		-1.06016e-08
  3.4000		9.86648e-08		0e-3		-1.05541e-08
  3.6000		1.00926e-07		0e-3		-1.06039e-08
  3.8000		1.03345e-07		0e-3		-1.06528e-08
  4.0000		1.05749e-07		0e-3		-1.07232e-08
  4.2000		1.08241e-07		0e-3		-1.06754e-08
  4.4000		1.10812e-07		0e-3		-1.07017e-08
  4.6000		1.13341e-07		0e-3		-1.06847e-08
  4.8000		1.15933e-07		0e-3		-1.06698e-08
  5.0000		1.18709e-07		0e-3		-1.06239e-08
END_DB

BEGIN_DB
 ICCAP_VAR vb	1.0000
 ICCAP_VAR vg	0.6000
 ICCAP_VAR ve	0
 ICCAP_VAR vs	0

 #vd              id              ib              ig
  0.0000		-1.31881e-09		0e-3		-1.07176e-08
  0.2000		1.18992e-07		0e-3		-1.06276e-08
  0.4000		1.37522e-07		0e-3		-1.06903e-08
  0.6000		1.44538e-07		0e-3		-1.06637e-08
  0.8000		1.49807e-07		0e-3		-1.05894e-08
  1.0000		1.54539e-07		0e-3		-1.06180e-08
  1.2000		1.58962e-07		0e-3		-1.05838e-08
  1.4000		1.63257e-07		0e-3		-1.06224e-08
  1.6000		1.67426e-07		0e-3		-1.06785e-08
  1.8000		1.71596e-07		0e-3		-1.07400e-08
  2.0000		1.75587e-07		0e-3		-1.07127e-08
  2.2000		1.79614e-07		0e-3		-1.06978e-08
  2.4000		1.83654e-07		0e-3		-1.06283e-08
  2.6000		1.87676e-07		0e-3		-1.06221e-08
  2.8000		1.91722e-07		0e-3		-1.06050e-08
  3.0000		1.95817e-07		0e-3		-1.06388e-08
  3.2000		2.00076e-07		0e-3		-1.06276e-08
  3.4000		2.04432e-07		0e-3		-1.06791e-08
  3.6000		2.08657e-07		0e-3		-1.07309e-08
  3.8000		2.13571e-07		0e-3		-1.06500e-08
  4.0000		2.18799e-07		0e-3		-1.06235e-08
  4.2000		2.24272e-07		0e-3		-1.05128e-08
  4.4000		2.30170e-07		0e-3		-1.05557e-08
  4.6000		2.36497e-07		0e-3		-1.06066e-08
  4.8000		2.43741e-07		0e-3		-1.05956e-08
  5.0000		2.51563e-07		0e-3		-1.06381e-08
END_DB

BEGIN_DB
 ICCAP_VAR vb	1.0000
 ICCAP_VAR vg	0.8000
 ICCAP_VAR ve	0
 ICCAP_VAR vs	0

 #vd              id              ib              ig
  0.0000		-7.55060e-09		0e-3		-1.06853e-08
  0.2000		8.97770e-07		0e-3		-1.05722e-08
  0.4000		1.00895e-06		0e-3		-1.05537e-08
  0.6000		1.04616e-06		0e-3		-1.05878e-08
  0.8000		1.07487e-06		0e-3		-1.06628e-08
  1.0000		1.10077e-06		0e-3		-1.07327e-08
  1.2000		1.12529e-06		0e-3		-1.06697e-08
  1.4000		1.14862e-06		0e-3		-1.01908e-08
  1.6000		1.17192e-06		0e-3		-1.06794e-08
  1.8000		1.19377e-06		0e-3		-1.06547e-08
  2.0000		1.21536e-06		0e-3		-1.06095e-08
  2.2000		1.23603e-06		0e-3		-1.05813e-08
  2.4000		1.25613e-06		0e-3		-1.05683e-08
  2.6000		1.27645e-06		0e-3		-1.06372e-08
  2.8000		1.29987e-06		0e-3		-1.07126e-08
  3.0000		1.32633e-06		0e-3		-1.06822e-08
  3.2000		1.35705e-06		0e-3		-1.06337e-08
  3.4000		1.39143e-06		0e-3		-1.06466e-08
  3.6000		1.43498e-06		0e-3		-1.06359e-08
  3.8000		1.49177e-06		0e-3		-1.10326e-08
  4.0000		1.56215e-06		0e-3		-1.07026e-08
  4.2000		1.65789e-06		0e-3		-1.07979e-08
  4.4000		1.78517e-06		0e-3		-1.00491e-08
  4.6000		1.95633e-06		0e-3		-1.02887e-08
  4.8000		2.19294e-06		0e-3		-1.06474e-08
  5.0000		2.51986e-06		0e-3		-1.06738e-08
END_DB

BEGIN_DB
 ICCAP_VAR vb	1.0000
 ICCAP_VAR vg	1.0000
 ICCAP_VAR ve	0
 ICCAP_VAR vs	0

 #vd              id              ib              ig
  0.0000		-3.56326e-08		0e-3		-1.06560e-08
  0.2000		7.19854e-06		0e-3		-1.06049e-08
  0.4000		7.88391e-06		0e-3		-1.05805e-08
  0.6000		8.10480e-06		0e-3		-1.05447e-08
  0.8000		8.26967e-06		0e-3		-1.05580e-08
  1.0000		8.41391e-06		0e-3		-1.06379e-08
  1.2000		8.54409e-06		0e-3		-1.06336e-08
  1.4000		8.66795e-06		0e-3		-1.06854e-08
  1.6000		8.78453e-06		0e-3		-1.06382e-08
  1.8000		8.89337e-06		0e-3		-1.05555e-08
  2.0000		9.01008e-06		0e-3		-1.05667e-08
  2.2000		9.13036e-06		0e-3		-1.05877e-08
  2.4000		9.26209e-06		0e-3		-1.06398e-08
  2.6000		9.42397e-06		0e-3		-1.06579e-08
  2.8000		9.63962e-06		0e-3		-1.06982e-08
  3.0000		9.93133e-06		0e-3		-1.06251e-08
  3.2000		1.03369e-05		0e-3		-1.06125e-08
  3.4000		1.09267e-05		0e-3		-1.05515e-08
  3.6000		1.17743e-05		0e-3		-1.06585e-08
  3.8000		1.30144e-05		0e-3		-1.06404e-08
  4.0000		1.47898e-05		0e-3		-1.06870e-08
  4.2000		1.72741e-05		0e-3		-1.06765e-08
  4.4000		2.06140e-05		0e-3		-1.07039e-08
  4.6000		2.48374e-05		0e-3		-1.06050e-08
  4.8000		2.99141e-05		0e-3		-1.06100e-08
  5.0000		3.57081e-05		0e-3		-1.05710e-08
END_DB

BEGIN_DB
 ICCAP_VAR vb	1.0000
 ICCAP_VAR vg	1.2000
 ICCAP_VAR ve	0
 ICCAP_VAR vs	0

 #vd              id              ib              ig
  0.0000		-7.66063e-08		0e-3		-1.06093e-08
  0.2000		3.12879e-05		0e-3		-1.05389e-08
  0.4000		3.40849e-05		0e-3		-1.05404e-08
  0.6000		3.47716e-05		0e-3		-1.05913e-08
  0.8000		3.52665e-05		0e-3		-1.06207e-08
  1.0000		3.56832e-05		0e-3		-1.06624e-08
  1.2000		3.60615e-05		0e-3		-1.06796e-08
  1.4000		3.64183e-05		0e-3		-1.06016e-08
  1.6000		3.67571e-05		0e-3		-1.05704e-08
  1.8000		3.70789e-05		0e-3		-1.06100e-08
  2.0000		3.74118e-05		0e-3		-1.05251e-08
  2.2000		3.77868e-05		0e-3		-1.06316e-08
  2.4000		3.82668e-05		0e-3		-1.05667e-08
  2.6000		3.89558e-05		0e-3		-1.06080e-08
  2.8000		4.00220e-05		0e-3		-1.06865e-08
  3.0000		4.16602e-05		0e-3		-1.06354e-08
  3.2000		4.41335e-05		0e-3		-1.05914e-08
  3.4000		4.77363e-05		0e-3		-1.06006e-08
  3.6000		5.25594e-05		0e-3		-1.04913e-08
  3.8000		5.90920e-05		0e-3		-1.05866e-08
  4.0000		6.72698e-05		0e-3		-1.05517e-08
  4.2000		7.67946e-05		0e-3		-1.06033e-08
  4.4000		8.73685e-05		0e-3		-1.06437e-08
  4.6000		9.87649e-05		0e-3		-1.06425e-08
  4.8000		1.10841e-04		0e-3		-1.06742e-08
  5.0000		1.23537e-04		0e-3		-1.06392e-08
END_DB

BEGIN_DB
 ICCAP_VAR vb	1.0000
 ICCAP_VAR vg	1.4000
 ICCAP_VAR ve	0
 ICCAP_VAR vs	0

 #vd              id              ib              ig
  0.0000		-1.09452e-07		0e-3		-1.05400e-08
  0.2000		8.09948e-05		0e-3		-1.05828e-08
  0.4000		9.17776e-05		0e-3		-1.05976e-08
  0.6000		9.31859e-05		0e-3		-1.06107e-08
  0.8000		9.41873e-05		0e-3		-1.06028e-08
  1.0000		9.50813e-05		0e-3		-1.06307e-08
  1.2000		9.59754e-05		0e-3		-1.07251e-08
  1.4000		9.67026e-05		0e-3		-1.06142e-08
  1.6000		9.72986e-05		0e-3		-1.05710e-08
  1.8000		9.79900e-05		0e-3		-1.05660e-08
  2.0000		9.86099e-05		0e-3		-1.05548e-08
  2.2000		9.94205e-05		0e-3		-1.06037e-08
  2.4000		1.00470e-04		0e-3		-1.05743e-08
  2.6000		1.02067e-04		0e-3		-1.06549e-08
  2.8000		1.04856e-04		0e-3		-1.06062e-08
  3.0000		1.09243e-04		0e-3		-1.06425e-08
  3.2000		1.15836e-04		0e-3		-1.05659e-08
  3.4000		1.24907e-04		0e-3		-1.06086e-08
  3.6000		1.36530e-04		0e-3		-1.05544e-08
  3.8000		1.50275e-04		0e-3		-1.06061e-08
  4.0000		1.65713e-04		0e-3		-1.05441e-08
  4.2000		1.82450e-04		0e-3		-1.06438e-08
  4.4000		2.00140e-04		0e-3		-1.06525e-08
  4.6000		2.18320e-04		0e-3		-1.06157e-08
  4.8000		2.37119e-04		0e-3		-1.06649e-08
  5.0000		2.56407e-04		0e-3		-1.06579e-08
END_DB

BEGIN_DB
 ICCAP_VAR vb	1.0000
 ICCAP_VAR vg	1.6000
 ICCAP_VAR ve	0
 ICCAP_VAR vs	0

 #vd              id              ib              ig
  0.0000		-1.46682e-07		0e-3		-1.06049e-08
  0.2000		1.49369e-04		0e-3		-1.05820e-08
  0.4000		1.85680e-04		0e-3		-1.05891e-08
  0.6000		1.90127e-04		0e-3		-1.05923e-08
  0.8000		1.92046e-04		0e-3		-1.05796e-08
  1.0000		1.93524e-04		0e-3		-1.05817e-08
  1.2000		1.94871e-04		0e-3		-1.06151e-08
  1.4000		1.96028e-04		0e-3		-1.05816e-08
  1.6000		1.97160e-04		0e-3		-1.05692e-08
  1.8000		1.98150e-04		0e-3		-1.06398e-08
  2.0000		1.99187e-04		0e-3		-1.06446e-08
  2.2000		2.00272e-04		0e-3		-1.06137e-08
  2.4000		2.01976e-04		0e-3		-1.06120e-08
  2.6000		2.04599e-04		0e-3		-1.05304e-08
  2.8000		2.09105e-04		0e-3		-1.05511e-08
  3.0000		2.16687e-04		0e-3		-1.06044e-08
  3.2000		2.28012e-04		0e-3		-1.06103e-08
  3.4000		2.43270e-04		0e-3		-1.07028e-08
  3.6000		2.61879e-04		0e-3		-1.06536e-08
  3.8000		2.82907e-04		0e-3		-1.06391e-08
  4.0000		3.05545e-04		0e-3		-1.06187e-08
  4.2000		3.29268e-04		0e-3		-1.06040e-08
  4.4000		3.53730e-04		0e-3		-1.05580e-08
  4.6000		3.78704e-04		0e-3		-1.05842e-08
  4.8000		4.04072e-04		0e-3		-1.06086e-08
  5.0000		4.29916e-04		0e-3		-1.06633e-08
END_DB

BEGIN_DB
 ICCAP_VAR vb	1.0000
 ICCAP_VAR vg	1.8000
 ICCAP_VAR ve	0
 ICCAP_VAR vs	0

 #vd              id              ib              ig
  0.0000		-1.78427e-07		0e-3		-1.07653e-08
  0.2000		2.25687e-04		0e-3		-1.05389e-08
  0.4000		3.12269e-04		0e-3		-1.05591e-08
  0.6000		3.27051e-04		0e-3		-1.06095e-08
  0.8000		3.30472e-04		0e-3		-1.06368e-08
  1.0000		3.32880e-04		0e-3		-1.06057e-08
  1.2000		3.34918e-04		0e-3		-1.06013e-08
  1.4000		3.36707e-04		0e-3		-1.06076e-08
  1.6000		3.38197e-04		0e-3		-1.05835e-08
  1.8000		3.39723e-04		0e-3		-1.05749e-08
  2.0000		3.41117e-04		0e-3		-1.06130e-08
  2.2000		3.42643e-04		0e-3		-1.06109e-08
  2.4000		3.44563e-04		0e-3		-1.06566e-08
  2.6000		3.47829e-04		0e-3		-1.06599e-08
  2.8000		3.53611e-04		0e-3		-1.06658e-08
  3.0000		3.63696e-04		0e-3		-1.06270e-08
  3.2000		3.79229e-04		0e-3		-1.05737e-08
  3.4000		4.00329e-04		0e-3		-1.05861e-08
  3.6000		4.25601e-04		0e-3		-1.05935e-08
  3.8000		4.53651e-04		0e-3		-1.06194e-08
  4.0000		4.83418e-04		0e-3		-1.06659e-08
  4.2000		5.14066e-04		0e-3		-1.06877e-08
  4.4000		5.45263e-04		0e-3		-1.07008e-08
  4.6000		5.76913e-04		0e-3		-1.06226e-08
  4.8000		6.08838e-04		0e-3		-1.06070e-08
  5.0000		6.41143e-04		0e-3		-1.05962e-08
END_DB

BEGIN_DB
 ICCAP_VAR vb	1.0000
 ICCAP_VAR vg	2.0000
 ICCAP_VAR ve	0
 ICCAP_VAR vs	0

 #vd              id              ib              ig
  0.0000		-2.30454e-07		0e-3		-1.10536e-08
  0.2000		3.03602e-04		0e-3		-1.06184e-08
  0.4000		4.58431e-04		0e-3		-1.06170e-08
  0.6000		5.02074e-04		0e-3		-1.06018e-08
  0.8000		5.10263e-04		0e-3		-1.05944e-08
  1.0000		5.14090e-04		0e-3		-1.06518e-08
  1.2000		5.17058e-04		0e-3		-1.06072e-08
  1.4000		5.19466e-04		0e-3		-1.06397e-08
  1.6000		5.21743e-04		0e-3		-1.06611e-08
  1.8000		5.23794e-04		0e-3		-1.06090e-08
  2.0000		5.25796e-04		0e-3		-1.05752e-08
  2.2000		5.27692e-04		0e-3		-1.05619e-08
  2.4000		5.29921e-04		0e-3		-1.05587e-08
  2.6000		5.33354e-04		0e-3		-1.05902e-08
  2.8000		5.39494e-04		0e-3		-1.05982e-08
  3.0000		5.50818e-04		0e-3		-1.06196e-08
  3.2000		5.69141e-04		0e-3		-1.06362e-08
  3.4000		5.94687e-04		0e-3		-1.06490e-08
  3.6000		6.26087e-04		0e-3		-1.06571e-08
  3.8000		6.60944e-04		0e-3		-1.06174e-08
  4.0000		6.97613e-04		0e-3		-1.06022e-08
  4.2000		7.35211e-04		0e-3		-1.06057e-08
  4.4000		7.73132e-04		0e-3		-1.06597e-08
  4.6000		8.11291e-04		0e-3		-1.06397e-08
  4.8000		8.49652e-04		0e-3		-1.06485e-08
  5.0000		8.88515e-04		0e-3		-1.06430e-08
END_DB

BEGIN_DB
 ICCAP_VAR vb	1.0000
 ICCAP_VAR vg	2.2000
 ICCAP_VAR ve	0
 ICCAP_VAR vs	0

 #vd              id              ib              ig
  0.0000		-4.60784e-07		0e-3		-1.05895e-08
  0.2000		3.81064e-04		0e-3		-1.06424e-08
  0.4000		6.11293e-04		0e-3		-1.05795e-08
  0.6000		7.07221e-04		0e-3		-1.06095e-08
  0.8000		7.30896e-04		0e-3		-1.05597e-08
  1.0000		7.37369e-04		0e-3		-1.05640e-08
  1.2000		7.41601e-04		0e-3		-1.06061e-08
  1.4000		7.44844e-04		0e-3		-1.06356e-08
  1.6000		7.48014e-04		0e-3		-1.05909e-08
  1.8000		7.50637e-04		0e-3		-1.06354e-08
  2.0000		7.53307e-04		0e-3		-1.05982e-08
  2.2000		7.55811e-04		0e-3		-1.05625e-08
  2.4000		7.58266e-04		0e-3		-1.05805e-08
  2.6000		7.61604e-04		0e-3		-1.05672e-08
  2.8000		7.67469e-04		0e-3		-1.05274e-08
  3.0000		7.78425e-04		0e-3		-1.05275e-08
  3.2000		7.97570e-04		0e-3		-1.05841e-08
  3.4000		8.26120e-04		0e-3		-1.06168e-08
  3.6000		8.62360e-04		0e-3		-1.06223e-08
  3.8000		9.03654e-04		0e-3		-1.05896e-08
  4.0000		9.46975e-04		0e-3		-1.05575e-08
  4.2000		9.91309e-04		0e-3		-1.05512e-08
  4.4000		1.03598e-03		0e-3		-1.06150e-08
  4.6000		1.08081e-03		0e-3		-1.06100e-08
  4.8000		1.12545e-03		0e-3		-1.06243e-08
  5.0000		1.17061e-03		0e-3		-1.06232e-08
END_DB

BEGIN_DB
 ICCAP_VAR vb	1.0000
 ICCAP_VAR vg	2.4000
 ICCAP_VAR ve	0
 ICCAP_VAR vs	0

 #vd              id              ib              ig
  0.0000		-7.11423e-07		0e-3		-1.11190e-08
  0.2000		4.57144e-04		0e-3		-1.05904e-08
  0.4000		7.64442e-04		0e-3		-1.06356e-08
  0.6000		9.28497e-04		0e-3		-1.06577e-08
  0.8000		9.86922e-04		0e-3		-1.06368e-08
  1.0000		1.00192e-03		0e-3		-1.06562e-08
  1.2000		1.00816e-03		0e-3		-1.06076e-08
  1.4000		1.01298e-03		0e-3		-1.05684e-08
  1.6000		1.01688e-03		0e-3		-1.05771e-08
  1.8000		1.02056e-03		0e-3		-1.05319e-08
  2.0000		1.02377e-03		0e-3		-1.05894e-08
  2.2000		1.02676e-03		0e-3		-1.06332e-08
  2.4000		1.02990e-03		0e-3		-1.06208e-08
  2.6000		1.03322e-03		0e-3		-1.07011e-08
  2.8000		1.03828e-03		0e-3		-1.06236e-08
  3.0000		1.04779e-03		0e-3		-1.06277e-08
  3.2000		1.06546e-03		0e-3		-1.05941e-08
  3.4000		1.09425e-03		0e-3		-1.05804e-08
  3.6000		1.13361e-03		0e-3		-1.05909e-08
  3.8000		1.18009e-03		0e-3		-1.05933e-08
  4.0000		1.23003e-03		0e-3		-1.06534e-08
  4.2000		1.28107e-03		0e-3		-1.06713e-08
  4.4000		1.33247e-03		0e-3		-1.06835e-08
  4.6000		1.38371e-03		0e-3		-1.06403e-08
  4.8000		1.43476e-03		0e-3		-1.06237e-08
  5.0000		1.48596e-03		0e-3		-1.05735e-08
END_DB

BEGIN_DB
 ICCAP_VAR vb	1.0000
 ICCAP_VAR vg	2.6000
 ICCAP_VAR ve	0
 ICCAP_VAR vs	0

 #vd              id              ib              ig
  0.0000		-9.88511e-07		0e-3		-1.01829e-08
  0.2000		5.31304e-04		0e-3		-1.06157e-08
  0.4000		9.14884e-04		0e-3		-1.06052e-08
  0.6000		1.15325e-03		0e-3		-1.05789e-08
  0.8000		1.26748e-03		0e-3		-1.05797e-08
  1.0000		1.30486e-03		0e-3		-1.05597e-08
  1.2000		1.31599e-03		0e-3		-1.06115e-08
  1.4000		1.32248e-03		0e-3		-1.06806e-08
  1.6000		1.32813e-03		0e-3		-1.06331e-08
  1.8000		1.33262e-03		0e-3		-1.05759e-08
  2.0000		1.33669e-03		0e-3		-1.05480e-08
  2.2000		1.34046e-03		0e-3		-1.05748e-08
  2.4000		1.34388e-03		0e-3		-1.05922e-08
  2.6000		1.34768e-03		0e-3		-1.06490e-08
  2.8000		1.35238e-03		0e-3		-1.06549e-08
  3.0000		1.36001e-03		0e-3		-1.06698e-08
  3.2000		1.37486e-03		0e-3		-1.05909e-08
  3.4000		1.40128e-03		0e-3		-1.05797e-08
  3.6000		1.44092e-03		0e-3		-1.05349e-08
  3.8000		1.49081e-03		0e-3		-1.05585e-08
  4.0000		1.54623e-03		0e-3		-1.05892e-08
  4.2000		1.60394e-03		0e-3		-1.06455e-08
  4.4000		1.66180e-03		0e-3		-1.06863e-08
  4.6000		1.71944e-03		0e-3		-1.06722e-08
  4.8000		1.77679e-03		0e-3		-1.06641e-08
  5.0000		1.83406e-03		0e-3		-1.06224e-08
END_DB

BEGIN_DB
 ICCAP_VAR vb	1.0000
 ICCAP_VAR vg	2.8000
 ICCAP_VAR ve	0
 ICCAP_VAR vs	0

 #vd              id              ib              ig
  0.0000		-1.21408e-06		0e-3		-1.07605e-08
  0.2000		6.03521e-04		0e-3		-1.06251e-08
  0.4000		1.06202e-03		0e-3		-1.06008e-08
  0.6000		1.37618e-03		0e-3		-1.05811e-08
  0.8000		1.55883e-03		0e-3		-1.05621e-08
  1.0000		1.63798e-03		0e-3		-1.05178e-08
  1.2000		1.66372e-03		0e-3		-1.05088e-08
  1.4000		1.67385e-03		0e-3		-1.06206e-08
  1.6000		1.68085e-03		0e-3		-1.05897e-08
  1.8000		1.68682e-03		0e-3		-1.06425e-08
  2.0000		1.69209e-03		0e-3		-1.05729e-08
  2.2000		1.69677e-03		0e-3		-1.05639e-08
  2.4000		1.70090e-03		0e-3		-1.05475e-08
  2.6000		1.70512e-03		0e-3		-1.05426e-08
  2.8000		1.70966e-03		0e-3		-1.05525e-08
  3.0000		1.71595e-03		0e-3		-1.06227e-08
  3.2000		1.72737e-03		0e-3		-1.06612e-08
  3.4000		1.74923e-03		0e-3		-1.06981e-08
  3.6000		1.78570e-03		0e-3		-1.06337e-08
  3.8000		1.83604e-03		0e-3		-1.06742e-08
  4.0000		1.89552e-03		0e-3		-1.06411e-08
  4.2000		1.95903e-03		0e-3		-1.05839e-08
  4.4000		2.02363e-03		0e-3		-1.05739e-08
  4.6000		2.08777e-03		0e-3		-1.08570e-08
  4.8000		2.15138e-03		0e-3		-1.01502e-08
  5.0000		2.21466e-03		0e-3		-1.07251e-08
END_DB

BEGIN_DB
 ICCAP_VAR vb	1.0000
 ICCAP_VAR vg	3.0000
 ICCAP_VAR ve	0
 ICCAP_VAR vs	0

 #vd              id              ib              ig
  0.0000		-1.46417e-06		0e-3		-1.01049e-08
  0.2000		6.73914e-04		0e-3		-1.05565e-08
  0.4000		1.20555e-03		0e-3		-1.06012e-08
  0.6000		1.59426e-03		0e-3		-1.06496e-08
  0.8000		1.85028e-03		0e-3		-1.07014e-08
  1.0000		1.98849e-03		0e-3		-1.06543e-08
  1.2000		2.04486e-03		0e-3		-1.06318e-08
  1.4000		2.06400e-03		0e-3		-1.05711e-08
  1.6000		2.07431e-03		0e-3		-1.05665e-08
  1.8000		2.08179e-03		0e-3		-1.05057e-08
  2.0000		2.08805e-03		0e-3		-1.05621e-08
  2.2000		2.09382e-03		0e-3		-1.06616e-08
  2.4000		2.09944e-03		0e-3		-1.06663e-08
  2.6000		2.10431e-03		0e-3		-1.07116e-08
  2.8000		2.10917e-03		0e-3		-1.06738e-08
  3.0000		2.11482e-03		0e-3		-1.06499e-08
  3.2000		2.12313e-03		0e-3		-1.05747e-08
  3.4000		2.13999e-03		0e-3		-1.05222e-08
  3.6000		2.17046e-03		0e-3		-1.05928e-08
