! VERSION = 6.00
BEGIN_HEADER
 ICCAP_INPUTS
  vg         V  G GROUND SMU2 1E-005 LIN	2	0	5	6	1
  vb         V  B GROUND SMU4 0.01 LIN	3	1         1         1    1        
  vd         V  D GROUND SMU1 0.1 LIN	1	0          5          51   0.1       
  vs         V  S GROUND SMU3 0.1 CON        0
  ve         V  E GROUND SMU5 0.1 CON        0
 ICCAP_OUTPUTS
  id         I  D GROUND SMU1 B
  ib         I  D GROUND SMU4 B
  ig         I  D GROUND SMU2 B
END_HEADER


BEGIN_DB
 ICCAP_VAR vb	1.0000
 ICCAP_VAR vg	0.0000
 ICCAP_VAR ve	0
 ICCAP_VAR vs	0

 #vd              id              ib              ig
  0.0000		-5.20706e-10		0e-3		-6.99627e-09
  0.1000		2.96439e-08		0e-3		-1.04980e-08
  0.2000		4.59026e-08		0e-3		-1.06165e-08
  0.3000		5.20253e-08		0e-3		-1.05994e-08
  0.4000		5.49877e-08		0e-3		-1.06338e-08
  0.5000		5.68795e-08		0e-3		-1.06640e-08
  0.6000		5.84328e-08		0e-3		-1.04407e-08
  0.7000		5.97715e-08		0e-3		-1.08722e-08
  0.8000		6.12462e-08		0e-3		-1.08534e-08
  0.9000		6.23059e-08		0e-3		-1.06857e-08
  1.0000		6.33883e-08		0e-3		-1.06401e-08
  1.1000		6.44624e-08		0e-3		-1.06258e-08
  1.2000		6.55854e-08		0e-3		-1.06190e-08
  1.3000		6.67393e-08		0e-3		-1.06040e-08
  1.4000		6.77693e-08		0e-3		-1.06069e-08
  1.5000		6.89197e-08		0e-3		-1.06175e-08
  1.6000		6.99151e-08		0e-3		-1.06311e-08
  1.7000		7.11000e-08		0e-3		-1.06086e-08
  1.8000		7.22074e-08		0e-3		-1.06421e-08
  1.9000		7.32589e-08		0e-3		-1.06288e-08
  2.0000		7.42972e-08		0e-3		-1.06301e-08
  2.1000		7.52974e-08		0e-3		-1.06159e-08
  2.2000		7.63416e-08		0e-3		-1.06307e-08
  2.3000		7.74074e-08		0e-3		-1.06070e-08
  2.4000		7.84194e-08		0e-3		-1.05978e-08
  2.5000		7.94172e-08		0e-3		-1.06435e-08
  2.6000		8.03375e-08		0e-3		-1.06213e-08
  2.7000		8.14021e-08		0e-3		-1.05896e-08
  2.8000		8.24761e-08		0e-3		-1.06267e-08
  2.9000		8.35216e-08		0e-3		-1.07398e-08
  3.0000		8.45635e-08		0e-3		-1.06568e-08
  3.1000		8.54421e-08		0e-3		-9.85038e-09
  3.2000		8.71277e-08		0e-3		-1.05261e-08
  3.3000		8.75616e-08		0e-3		-1.06273e-08
  3.4000		8.85332e-08		0e-3		-1.06086e-08
  3.5000		8.94880e-08		0e-3		-1.05780e-08
  3.6000		9.06992e-08		0e-3		-1.06999e-08
  3.7000		9.18150e-08		0e-3		-1.06328e-08
  3.8000		9.30476e-08		0e-3		-1.06779e-08
  3.9000		9.42898e-08		0e-3		-1.06905e-08
  4.0000		9.53710e-08		0e-3		-1.06628e-08
  4.1000		9.65703e-08		0e-3		-1.13617e-08
  4.2000		9.69470e-08		0e-3		-1.06595e-08
  4.3000		9.87041e-08		0e-3		-1.06337e-08
  4.4000		9.98139e-08		0e-3		-1.06057e-08
  4.5000		1.00905e-07		0e-3		-1.05242e-08
  4.6000		1.02077e-07		0e-3		-1.06374e-08
  4.7000		1.03302e-07		0e-3		-1.06630e-08
  4.8000		1.04538e-07		0e-3		-1.19203e-08
  4.9000		1.05972e-07		0e-3		-1.07621e-08
  5.0000		1.06975e-07		0e-3		-1.06742e-08
END_DB

BEGIN_DB
 ICCAP_VAR vb	1.0000
 ICCAP_VAR vg	1.0000
 ICCAP_VAR ve	0
 ICCAP_VAR vs	0

 #vd              id              ib              ig
  0.0000		-3.72636e-08		0e-3		-1.05164e-08
  0.1000		5.39978e-06		0e-3		-1.06071e-08
  0.2000		7.24137e-06		0e-3		-1.05920e-08
  0.3000		7.72286e-06		0e-3		-1.06056e-08
  0.4000		7.90930e-06		0e-3		-1.05571e-08
  0.5000		8.02648e-06		0e-3		-1.05520e-08
  0.6000		8.12078e-06		0e-3		-1.05880e-08
  0.7000		8.20374e-06		0e-3		-1.06645e-08
  0.8000		8.27825e-06		0e-3		-1.06403e-08
  0.9000		8.34942e-06		0e-3		-1.06593e-08
  1.0000		8.41665e-06		0e-3		-1.06224e-08
  1.1000		8.47995e-06		0e-3		-1.06491e-08
  1.2000		8.54170e-06		0e-3		-1.06156e-08
  1.3000		8.60357e-06		0e-3		-1.05503e-08
  1.4000		8.66389e-06		0e-3		-1.06318e-08
  1.5000		8.72445e-06		0e-3		-1.06250e-08
  1.6000		8.78036e-06		0e-3		-1.06658e-08
  1.7000		8.83877e-06		0e-3		-1.06840e-08
  1.8000		8.89254e-06		0e-3		-1.06289e-08
  1.9000		8.94856e-06		0e-3		-1.06198e-08
  2.0000		9.00424e-06		0e-3		-1.06415e-08
  2.1000		9.05895e-06		0e-3		-1.05748e-08
  2.2000		9.11927e-06		0e-3		-1.05461e-08
  2.3000		9.18400e-06		0e-3		-1.06205e-08
  2.4000		9.25100e-06		0e-3		-1.06070e-08
  2.5000		9.32491e-06		0e-3		-1.06592e-08
  2.6000		9.40955e-06		0e-3		-1.06734e-08
  2.7000		9.50515e-06		0e-3		-1.05952e-08
  2.8000		9.62174e-06		0e-3		-1.05810e-08
  2.9000		9.75823e-06		0e-3		-1.05673e-08
  3.0000		9.91464e-06		0e-3		-1.05880e-08
  3.1000		1.01047e-05		0e-3		-1.05938e-08
  3.2000		1.03304e-05		0e-3		-1.06183e-08
  3.3000		1.05948e-05		0e-3		-1.06720e-08
  3.4000		1.09165e-05		0e-3		-1.06035e-08
  3.5000		1.13025e-05		0e-3		-1.06516e-08
  3.6000		1.17683e-05		0e-3		-1.06118e-08
  3.7000		1.23261e-05		0e-3		-1.05773e-08
  3.8000		1.30023e-05		0e-3		-1.05309e-08
  3.9000		1.38092e-05		0e-3		-1.05816e-08
  4.0000		1.47778e-05		0e-3		-1.06213e-08
  4.1000		1.59193e-05		0e-3		-1.06137e-08
  4.2000		1.72580e-05		0e-3		-1.07065e-08
  4.3000		1.88241e-05		0e-3		-1.06795e-08
  4.4000		2.05992e-05		0e-3		-1.06280e-08
  4.5000		2.26088e-05		0e-3		-1.06323e-08
  4.6000		2.48369e-05		0e-3		-1.06481e-08
  4.7000		2.72741e-05		0e-3		-1.06304e-08
  4.8000		2.99135e-05		0e-3		-1.06900e-08
  4.9000		3.27250e-05		0e-3		-1.06337e-08
  5.0000		3.57131e-05		0e-3		-1.06390e-08
END_DB

BEGIN_DB
 ICCAP_VAR vb	1.0000
 ICCAP_VAR vg	2.0000
 ICCAP_VAR ve	0
 ICCAP_VAR vs	0

 #vd              id              ib              ig
  0.0000		-1.92277e-07		0e-3		-1.00996e-08
  0.1000		1.68538e-04		0e-3		-1.06177e-08
  0.2000		3.04306e-04		0e-3		-1.05827e-08
  0.3000		4.00007e-04		0e-3		-1.06064e-08
  0.4000		4.59206e-04		0e-3		-1.05715e-08
  0.5000		4.89724e-04		0e-3		-1.05813e-08
  0.6000		5.02825e-04		0e-3		-1.05958e-08
  0.7000		5.08332e-04		0e-3		-1.06343e-08
  0.8000		5.11122e-04		0e-3		-1.06279e-08
  0.9000		5.12981e-04		0e-3		-1.06220e-08
  1.0000		5.14710e-04		0e-3		-1.05824e-08
  1.1000		5.16212e-04		0e-3		-1.05530e-08
  1.2000		5.17499e-04		0e-3		-1.05859e-08
  1.3000		5.18823e-04		0e-3		-1.05345e-08
  1.4000		5.19884e-04		0e-3		-1.06022e-08
  1.5000		5.21100e-04		0e-3		-1.06404e-08
  1.6000		5.22220e-04		0e-3		-1.06500e-08
  1.7000		5.23210e-04		0e-3		-1.06561e-08
  1.8000		5.24128e-04		0e-3		-1.06332e-08
  1.9000		5.25129e-04		0e-3		-1.05768e-08
  2.0000		5.26083e-04		0e-3		-1.05313e-08
  2.1000		5.27012e-04		0e-3		-1.05315e-08
  2.2000		5.27990e-04		0e-3		-1.05534e-08
  2.3000		5.29027e-04		0e-3		-1.06093e-08
  2.4000		5.30219e-04		0e-3		-1.06627e-08
  2.5000		5.31697e-04		0e-3		-1.06255e-08
  2.6000		5.33640e-04		0e-3		-1.06553e-08
  2.7000		5.36227e-04		0e-3		-1.06530e-08
  2.8000		5.39732e-04		0e-3		-1.06142e-08
  2.9000		5.44620e-04		0e-3		-1.05962e-08
  3.0000		5.51164e-04		0e-3		-1.05824e-08
  3.1000		5.59497e-04		0e-3		-1.05649e-08
  3.2000		5.69630e-04		0e-3		-1.06074e-08
  3.3000		5.81706e-04		0e-3		-1.06117e-08
  3.4000		5.95462e-04		0e-3		-1.05872e-08
  3.5000		6.10614e-04		0e-3		-1.06188e-08
  3.6000		6.26934e-04		0e-3		-1.06056e-08
  3.7000		6.44159e-04		0e-3		-1.05940e-08
  3.8000		6.61933e-04		0e-3		-1.05681e-08
  3.9000		6.80101e-04		0e-3		-1.05792e-08
  4.0000		6.98662e-04		0e-3		-1.05832e-08
  4.1000		7.17330e-04		0e-3		-1.06000e-08
  4.2000		7.36260e-04		0e-3		-1.06791e-08
  4.3000		7.55286e-04		0e-3		-1.06587e-08
  4.4000		7.74169e-04		0e-3		-1.06379e-08
  4.5000		7.93362e-04		0e-3		-1.05530e-08
  4.6000		8.12376e-04		0e-3		-1.05985e-08
  4.7000		8.31568e-04		0e-3		-1.05934e-08
  4.8000		8.50928e-04		0e-3		-1.05538e-08
  4.9000		8.70204e-04		0e-3		-1.06244e-08
  5.0000		8.89409e-04		0e-3		-1.06120e-08
END_DB

BEGIN_DB
 ICCAP_VAR vb	1.0000
 ICCAP_VAR vg	3.0000
 ICCAP_VAR ve	0
 ICCAP_VAR vs	0

 #vd              id              ib              ig
  0.0000		-1.42585e-06		0e-3		-1.08306e-08
  0.1000		3.52609e-04		0e-3		-1.04990e-08
  0.2000		6.75929e-04		0e-3		-1.05821e-08
  0.3000		9.60743e-04		0e-3		-1.06351e-08
  0.4000		1.20840e-03		0e-3		-1.05735e-08
  0.5000		1.42026e-03		0e-3		-1.06256e-08
  0.6000		1.59740e-03		0e-3		-1.05793e-08
  0.7000		1.74114e-03		0e-3		-1.05634e-08
  0.8000		1.85295e-03		0e-3		-1.06173e-08
  0.9000		1.93459e-03		0e-3		-1.05497e-08
  1.0000		1.99052e-03		0e-3		-1.05735e-08
  1.1000		2.02582e-03		0e-3		-1.05956e-08
  1.2000		2.04654e-03		0e-3		-1.05916e-08
  1.3000		2.05814e-03		0e-3		-1.06282e-08
  1.4000		2.06565e-03		0e-3		-1.05687e-08
  1.5000		2.07092e-03		0e-3		-1.05882e-08
  1.6000		2.07559e-03		0e-3		-1.05919e-08
  1.7000		2.07964e-03		0e-3		-1.06055e-08
  1.8000		2.08306e-03		0e-3		-1.05735e-08
  1.9000		2.08650e-03		0e-3		-1.05777e-08
  2.0000		2.08974e-03		0e-3		-1.06345e-08
  2.1000		2.09242e-03		0e-3		-1.05820e-08
  2.2000		2.09538e-03		0e-3		-1.05823e-08
  2.3000		2.09800e-03		0e-3		-1.05499e-08
  2.4000		2.10071e-03		0e-3		-1.05132e-08
  2.5000		2.10313e-03		0e-3		-1.05331e-08
  2.6000		2.10555e-03		0e-3		-1.05722e-08
  2.7000		2.10794e-03		0e-3		-1.06065e-08
  2.8000		2.11037e-03		0e-3		-1.05786e-08
  2.9000		2.11325e-03		0e-3		-1.06366e-08
  3.0000		2.11613e-03		0e-3		-1.06071e-08
  3.1000		2.11958e-03		0e-3		-1.05758e-08
  3.2000		2.12481e-03		0e-3		-1.05978e-08
  3.3000		2.13178e-03		0e-3		-1.05410e-08
  3.4000		2.14159e-03		0e-3		-1.05764e-08
  3.5000		2.15509e-03		0e-3		-1.05786e-08
  3.6000		2.17251e-03		0e-3		-1.06184e-08
  3.7000		2.19444e-03		0e-3		-1.05941e-08
  3.8000		2.22040e-03		0e-3		-1.06194e-08
  3.9000		2.24973e-03		0e-3		-1.06249e-08
  4.0000		2.28175e-03		0e-3		-1.05346e-08
  4.1000		2.31532e-03		0e-3		-1.05120e-08
  4.2000		2.34994e-03		0e-3		-1.05712e-08
  4.3000		2.38518e-03		0e-3		-1.05571e-08
  4.4000		2.42066e-03		0e-3		-1.05739e-08
  4.5000		2.45594e-03		0e-3		-1.05741e-08
  4.6000		2.49113e-03		0e-3		-1.05932e-08
  4.7000		2.52616e-03		0e-3		-1.06435e-08
  4.8000		2.56090e-03		0e-3		-1.06070e-08
  4.9000		2.59552e-03		0e-3		-1.04691e-08
  5.0000		2.62995e-03		0e-3		-1.05162e-08
END_DB

BEGIN_DB
 ICCAP_VAR vb	1.0000
 ICCAP_VAR vg	4.0000
 ICCAP_VAR ve	0
 ICCAP_VAR vs	0

 #vd              id              ib              ig
  0.0000		-2.65300e-06		0e-3		-1.05733e-08
  0.1000		5.15342e-04		0e-3		-1.05072e-08
  0.2000		1.00423e-03		0e-3		-1.05187e-08
  0.3000		1.45800e-03		0e-3		-1.04638e-08
  0.4000		1.87747e-03		0e-3		-1.04717e-08
  0.5000		2.26406e-03		0e-3		-1.05036e-08
  0.6000		2.61799e-03		0e-3		-1.06648e-08
  0.7000		2.94081e-03		0e-3		-1.06084e-08
  0.8000		3.23257e-03		0e-3		-1.06289e-08
  0.9000		3.49368e-03		0e-3		-1.05767e-08
  1.0000		3.72490e-03		0e-3		-1.05146e-08
  1.1000		3.92743e-03		0e-3		-1.05405e-08
  1.2000		4.10043e-03		0e-3		-1.05199e-08
  1.3000		4.24602e-03		0e-3		-1.05357e-08
  1.4000		4.36538e-03		0e-3		-1.05811e-08
  1.5000		4.45879e-03		0e-3		-1.05898e-08
  1.6000		4.53006e-03		0e-3		-1.06242e-08
  1.7000		4.58132e-03		0e-3		-1.06314e-08
  1.8000		4.61766e-03		0e-3		-1.05749e-08
  1.9000		4.64101e-03		0e-3		-1.05909e-08
  2.0000		4.65693e-03		0e-3		-1.04769e-08
  2.1000		4.66843e-03		0e-3		-1.05712e-08
  2.2000		4.67787e-03		0e-3		-1.05646e-08
  2.3000		4.68580e-03		0e-3		-1.06092e-08
  2.4000		4.69259e-03		0e-3		-1.06510e-08
  2.5000		4.69859e-03		0e-3		-1.06862e-08
  2.6000		4.70463e-03		0e-3		-1.06213e-08
  2.7000		4.70998e-03		0e-3		-1.06249e-08
  2.8000		4.71559e-03		0e-3		-1.06305e-08
  2.9000		4.72004e-03		0e-3		-1.05892e-08
  3.0000		4.72440e-03		0e-3		-1.05823e-08
  3.1000		4.72852e-03		0e-3		-1.06057e-08
  3.2000		4.73261e-03		0e-3		-1.06614e-08
  3.3000		4.73585e-03		0e-3		-1.06028e-08
  3.4000		4.73977e-03		0e-3		-1.06030e-08
  3.5000		4.74411e-03		0e-3		-1.05903e-08
  3.6000		4.74805e-03		0e-3		-1.06201e-08
  3.7000		4.75291e-03		0e-3		-1.05873e-08
  3.8000		4.75876e-03		0e-3		-1.06524e-08
  3.9000		4.76723e-03		0e-3		-1.06447e-08
  4.0000		4.77866e-03		0e-3		-1.07020e-08
  4.1000		4.79485e-03		0e-3		-1.06543e-08
  4.2000		4.81621e-03		0e-3		-1.06224e-08
  4.3000		4.84347e-03		0e-3		-1.06286e-08
  4.4000		4.87698e-03		0e-3		-1.06255e-08
  4.5000		4.91565e-03		0e-3		-1.05582e-08
  4.6000		4.95832e-03		0e-3		-1.05791e-08
  4.7000		5.10776e-03		0e-3		-1.05804e-08
  4.8000		5.16391e-03		0e-3		-1.06180e-08
  4.9000		5.21433e-03		0e-3		-1.06190e-08
  5.0000		5.26321e-03		0e-3		-1.06857e-08
END_DB

BEGIN_DB
 ICCAP_VAR vb	1.0000
 ICCAP_VAR vg	5.0000
 ICCAP_VAR ve	0
 ICCAP_VAR vs	0

 #vd              id              ib              ig
  0.0000		-3.80717e-06		0e-3		-1.02977e-08
  0.1000		6.60181e-04		0e-3		-1.06314e-08
  0.2000		1.29668e-03		0e-3		-1.05994e-08
  0.3000		1.90034e-03		0e-3		-1.06026e-08
  0.4000		2.47231e-03		0e-3		-1.06022e-08
  0.5000		3.01353e-03		0e-3		-1.05995e-08
  0.6000		3.52469e-03		0e-3		-1.05907e-08
  0.7000		4.00658e-03		0e-3		-1.05853e-08
  0.8000		4.45952e-03		0e-3		-1.05743e-08
  0.9000		4.88362e-03		0e-3		-1.05793e-08
  1.0000		5.40388e-03		0e-3		-1.06254e-08
  1.1000		5.76746e-03		0e-3		-1.07100e-08
  1.2000		6.10518e-03		0e-3		-1.06337e-08
  1.3000		6.42538e-03		0e-3		-1.05801e-08
  1.4000		6.70969e-03		0e-3		-1.05951e-08
  1.5000		6.98829e-03		0e-3		-1.05429e-08
  1.6000		7.20465e-03		0e-3		-1.05277e-08
  1.7000		7.42936e-03		0e-3		-1.06200e-08
  1.8000		7.61223e-03		0e-3		-1.07473e-08
  1.9000		7.77483e-03		0e-3		-1.06516e-08
  2.0000		7.89821e-03		0e-3		-1.06431e-08
  2.1000		8.01647e-03		0e-3		-1.06254e-08
  2.2000		8.11005e-03		0e-3		-1.06066e-08
  2.3000		8.18121e-03		0e-3		-1.06112e-08
  2.4000		8.21841e-03		0e-3		-1.05555e-08
  2.5000		8.26943e-03		0e-3		-1.06255e-08
  2.6000		8.30913e-03		0e-3		-1.06471e-08
  2.7000		8.32248e-03		0e-3		-1.06823e-08
  2.8000		8.34215e-03		0e-3		-1.05718e-08
  2.9000		8.34453e-03		0e-3		-1.06686e-08
  3.0000		8.37433e-03		0e-3		-1.06059e-08
  3.1000		8.38947e-03		0e-3		-1.05184e-08
  3.2000		8.39376e-03		0e-3		-1.05966e-08
  3.3000		8.40092e-03		0e-3		-1.05411e-08
  3.4000		8.39972e-03		0e-3		-1.05944e-08
  3.5000		8.40485e-03		0e-3		-1.06696e-08
  3.6000		8.42535e-03		0e-3		-1.05801e-08
  3.7000		8.42321e-03		0e-3		-1.06888e-08
  3.8000		8.42404e-03		0e-3		-1.06199e-08
  3.9000		8.43215e-03		0e-3		-1.05873e-08
  4.0000		8.43012e-03		0e-3		-1.05600e-08
  4.1000		8.43596e-03		0e-3		-1.04886e-08
  4.2000		8.44157e-03		0e-3		-1.05851e-08
  4.3000		8.45909e-03		0e-3		-1.05760e-08
  4.4000		8.45146e-03		0e-3		-1.06031e-08
  4.5000		8.44383e-03		0e-3		-1.06394e-08
  4.6000		8.46446e-03		0e-3		-1.06337e-08
  4.7000		8.48842e-03		0e-3		-1.06364e-08
  4.8000		8.50201e-03		0e-3		-1.05599e-08
  4.9000		8.55100e-03		0e-3		-1.05746e-08
  5.0000		8.58021e-03		0e-3		-1.05784e-08
END_DB