! VERSION = 6.00
BEGIN_HEADER
 ICCAP_INPUTS
  vg         V  G GROUND SMU2 1E-005 LIN	2	0	5	6	1
  vb         V  B GROUND SMU4 0.01 LIN	3	1         1         1    1        
  vd         V  D GROUND SMU1 0.1 LIN	1	0          5          101   0.05       
  vs         V  S GROUND SMU3 0.1 CON        0
  ve         V  E GROUND SMU5 0.1 CON        0
 ICCAP_OUTPUTS
  id         I  D GROUND SMU1 B
  ib         I  D GROUND SMU4 B
  ig         I  D GROUND SMU2 B
END_HEADER


BEGIN_DB
 ICCAP_VAR vb	1.0000
 ICCAP_VAR vg	0.0000
 ICCAP_VAR ve	0
 ICCAP_VAR vs	0

 #vd              id              ib              ig
  0.0000		-2.75493e-10		0e-3		-9.36985e-09
  0.0500		-8.57115e-11		0e-3		-9.20975e-09
  0.1000		-7.27177e-12		0e-3		-9.23610e-09
  0.1500		5.82933e-11		0e-3		-9.22120e-09
  0.2000		6.78301e-11		0e-3		-9.26566e-09
  0.2500		1.83582e-10		0e-3		-9.33778e-09
  0.3000		1.93954e-10		0e-3		-9.20749e-09
  0.3500		2.25663e-10		0e-3		-9.22287e-09
  0.4000		2.45214e-10		0e-3		-9.24432e-09
  0.4500		2.14696e-10		0e-3		-9.21893e-09
  0.5000		2.30908e-10		0e-3		-9.18663e-09
  0.5500		2.28524e-10		0e-3		-9.24265e-09
  0.6000		2.27451e-10		0e-3		-9.20069e-09
  0.6500		2.74181e-10		0e-3		-9.27103e-09
  0.7000		3.03984e-10		0e-3		-9.24551e-09
  0.7500		3.41773e-10		0e-3		-9.27794e-09
  0.8000		3.67880e-10		0e-3		-9.28462e-09
  0.8500		3.41296e-10		0e-3		-9.24420e-09
  0.9000		3.55482e-10		0e-3		-9.25600e-09
  0.9500		3.52383e-10		0e-3		-9.22060e-09
  1.0000		3.76582e-10		0e-3		-9.19151e-09
  1.0500		3.47376e-10		0e-3		-9.19354e-09
  1.1000		3.91603e-10		0e-3		-9.24015e-09
  1.1500		4.25339e-10		0e-3		-9.29987e-09
  1.2000		4.89712e-10		0e-3		-9.26828e-09
  1.2500		4.90308e-10		0e-3		-9.31096e-09
  1.3000		5.30839e-10		0e-3		-9.28164e-09
  1.3500		5.23448e-10		0e-3		-9.25183e-09
  1.4000		4.78148e-10		0e-3		-9.26590e-09
  1.4500		4.80056e-10		0e-3		-9.26352e-09
  1.5000		4.87089e-10		0e-3		-9.21500e-09
  1.5500		4.81606e-10		0e-3		-9.22394e-09
  1.6000		5.13911e-10		0e-3		-9.25183e-09
  1.6500		5.54681e-10		0e-3		-9.24361e-09
  1.7000		5.63622e-10		0e-3		-9.25720e-09
  1.7500		6.22392e-10		0e-3		-9.31334e-09
  1.8000		5.95331e-10		0e-3		-9.26971e-09
  1.8500		5.89967e-10		0e-3		-9.21094e-09
  1.9000		5.91397e-10		0e-3		-9.22108e-09
  1.9500		5.64218e-10		0e-3		-9.23932e-09
  2.0000		5.95570e-10		0e-3		-9.24003e-09
  2.0500		6.40035e-10		0e-3		-9.26209e-09
  2.1000		6.61254e-10		0e-3		-9.28485e-09
  2.1500		6.95705e-10		0e-3		-9.29773e-09
  2.2000		7.31826e-10		0e-3		-9.27818e-09
  2.2500		7.22885e-10		0e-3		-9.26507e-09
  2.3000		7.04885e-10		0e-3		-9.22692e-09
  2.3500		7.00951e-10		0e-3		-9.21738e-09
  2.4000		6.77824e-10		0e-3		-9.21786e-09
  2.4500		7.50065e-10		0e-3		-9.27830e-09
  2.5000		7.79390e-10		0e-3		-9.24742e-09
  2.5500		7.51138e-10		0e-3		-9.22239e-09
  2.6000		8.19564e-10		0e-3		-9.22394e-09
  2.6500		8.22186e-10		0e-3		-9.26995e-09
  2.7000		8.47101e-10		0e-3		-9.26709e-09
  2.7500		8.48532e-10		0e-3		-9.25493e-09
  2.8000		8.43883e-10		0e-3		-9.24051e-09
  2.8500		8.16703e-10		0e-3		-9.22966e-09
  2.9000		8.26597e-10		0e-3		-9.21571e-09
  2.9500		8.94308e-10		0e-3		-9.23955e-09
  3.0000		8.60691e-10		0e-3		-9.29070e-09
  3.0500		9.40442e-10		0e-3		-9.25910e-09
  3.1000		9.48429e-10		0e-3		-9.30309e-09
  3.1500		9.66430e-10		0e-3		-9.21440e-09
  3.2000		9.89914e-10		0e-3		-9.25231e-09
  3.2500		9.42945e-10		0e-3		-9.23920e-09
  3.3000		9.50336e-10		0e-3		-9.22787e-09
  3.3500		9.73344e-10		0e-3		-9.26840e-09
  3.4000		1.02735e-09		0e-3		-9.25577e-09
  3.4500		1.07074e-09		0e-3		-9.26971e-09
  3.5000		1.10245e-09		0e-3		-9.29642e-09
  3.5500		1.10233e-09		0e-3		-9.26650e-09
  3.6000		1.08981e-09		0e-3		-9.27198e-09
  3.6500		1.09315e-09		0e-3		-9.26423e-09
  3.7000		1.12140e-09		0e-3		-9.25767e-09
  3.7500		1.13809e-09		0e-3		-9.24945e-09
  3.8000		1.18077e-09		0e-3		-9.26244e-09
  3.8500		1.21045e-09		0e-3		-9.30822e-09
  3.9000		1.21534e-09		0e-3		-9.29725e-09
  3.9500		1.26982e-09		0e-3		-9.32074e-09
  4.0000		1.23870e-09		0e-3		-9.27520e-09
  4.0500		1.30653e-09		0e-3		-9.26816e-09
  4.1000		1.23966e-09		0e-3		-9.26197e-09
  4.1500		1.32251e-09		0e-3		-9.22763e-09
  4.2000		1.31643e-09		0e-3		-9.22739e-09
  4.2500		1.34695e-09		0e-3		-9.26614e-09
  4.3000		1.38426e-09		0e-3		-9.25374e-09
  4.3500		1.44422e-09		0e-3		-9.27866e-09
  4.4000		1.46592e-09		0e-3		-9.27460e-09
  4.4500		1.46759e-09		0e-3		-9.26006e-09
  4.5000		1.47104e-09		0e-3		-9.26662e-09
  4.5500		1.42097e-09		0e-3		-9.19878e-09
  4.6000		1.51706e-09		0e-3		-9.22787e-09
  4.6500		1.54424e-09		0e-3		-9.23920e-09
  4.7000		1.56713e-09		0e-3		-9.29093e-09
  4.7500		1.65224e-09		0e-3		-9.28974e-09
  4.8000		1.68502e-09		0e-3		-9.25291e-09
  4.8500		1.70112e-09		0e-3		-9.31096e-09
  4.9000		1.74069e-09		0e-3		-9.27198e-09
  4.9500		1.79946e-09		0e-3		-9.23646e-09
  5.0000		1.70934e-09		0e-3		-9.25553e-09
END_DB

BEGIN_DB
 ICCAP_VAR vb	1.0000
 ICCAP_VAR vg	1.0000
 ICCAP_VAR ve	0
 ICCAP_VAR vs	0

 #vd              id              ib              ig
  0.0000		-1.17624e-09		0e-3		-9.18436e-09
  0.0500		9.73105e-08		0e-3		-9.23753e-09
  0.1000		1.63083e-07		0e-3		-9.22847e-09
  0.1500		2.09316e-07		0e-3		-9.25362e-09
  0.2000		2.44085e-07		0e-3		-9.22799e-09
  0.2500		2.70021e-07		0e-3		-9.22811e-09
  0.3000		2.90145e-07		0e-3		-9.25052e-09
  0.3500		3.06599e-07		0e-3		-9.22370e-09
  0.4000		3.18255e-07		0e-3		-9.17482e-09
  0.4500		3.25290e-07		0e-3		-9.23252e-09
  0.5000		3.31873e-07		0e-3		-9.25410e-09
  0.5500		3.34694e-07		0e-3		-9.24253e-09
  0.6000		3.37659e-07		0e-3		-9.25672e-09
  0.6500		3.39694e-07		0e-3		-9.27877e-09
  0.7000		3.39533e-07		0e-3		-9.27448e-09
  0.7500		3.46649e-07		0e-3		-9.25744e-09
  0.8000		3.50407e-07		0e-3		-9.26828e-09
  0.8500		3.49071e-07		0e-3		-9.30107e-09
  0.9000		3.52895e-07		0e-3		-9.28509e-09
  0.9500		3.53566e-07		0e-3		-9.30941e-09
  1.0000		3.56796e-07		0e-3		-9.27591e-09
  1.0500		3.58684e-07		0e-3		-9.28283e-09
  1.1000		3.60165e-07		0e-3		-9.27961e-09
  1.1500		3.61878e-07		0e-3		-9.28712e-09
  1.2000		3.64252e-07		0e-3		-9.29153e-09
  1.2500		3.63668e-07		0e-3		-9.26971e-09
  1.3000		3.67011e-07		0e-3		-9.24361e-09
  1.3500		3.68792e-07		0e-3		-9.24706e-09
  1.4000		3.69470e-07		0e-3		-9.28640e-09
  1.4500		3.71255e-07		0e-3		-9.23526e-09
  1.5000		3.73808e-07		0e-3		-9.27079e-09
  1.5500		3.75955e-07		0e-3		-9.23812e-09
  1.6000		3.78162e-07		0e-3		-9.31537e-09
  1.6500		3.79868e-07		0e-3		-9.23371e-09
  1.7000		3.80397e-07		0e-3		-9.26054e-09
  1.7500		3.79684e-07		0e-3		-9.26983e-09
  1.8000		3.83841e-07		0e-3		-9.23359e-09
  1.8500		3.84953e-07		0e-3		-9.24718e-09
  1.9000		3.85326e-07		0e-3		-9.28259e-09
  1.9500		3.87737e-07		0e-3		-9.25183e-09
  2.0000		3.88902e-07		0e-3		-9.27138e-09
  2.0500		3.91479e-07		0e-3		-9.25005e-09
  2.1000		3.94102e-07		0e-3		-9.23753e-09
  2.1500		3.97063e-07		0e-3		-9.16564e-09
  2.2000		4.00510e-07		0e-3		-9.22501e-09
  2.2500		4.03043e-07		0e-3		-9.30500e-09
  2.3000		4.02721e-07		0e-3		-9.27293e-09
  2.3500		4.05101e-07		0e-3		-9.30250e-09
  2.4000		4.10879e-07		0e-3		-9.28879e-09
  2.4500		4.16419e-07		0e-3		-9.25159e-09
  2.5000		4.19513e-07		0e-3		-9.24289e-09
  2.5500		4.25566e-07		0e-3		-9.26697e-09
  2.6000		4.30847e-07		0e-3		-9.29677e-09
  2.6500		4.41238e-07		0e-3		-9.26209e-09
  2.7000		4.46824e-07		0e-3		-9.27114e-09
  2.7500		4.60412e-07		0e-3		-9.28140e-09
  2.8000		4.70546e-07		0e-3		-9.27866e-09
  2.8500		4.81615e-07		0e-3		-9.29832e-09
  2.9000		5.01883e-07		0e-3		-9.26757e-09
  2.9500		5.27251e-07		0e-3		-9.27126e-09
  3.0000		5.53477e-07		0e-3		-9.24611e-09
  3.0500		5.86057e-07		0e-3		-9.26173e-09
  3.1000		6.27553e-07		0e-3		-9.30297e-09
  3.1500		6.80220e-07		0e-3		-9.26089e-09
  3.2000		7.48754e-07		0e-3		-9.21988e-09
  3.2500		8.36301e-07		0e-3		-9.28187e-09
  3.3000		9.44841e-07		0e-3		-9.30274e-09
  3.3500		1.09183e-06		0e-3		-9.21643e-09
  3.4000		1.27032e-06		0e-3		-9.31549e-09
  3.4500		1.50354e-06		0e-3		-9.20045e-09
  3.5000		1.79560e-06		0e-3		-9.32503e-09
  3.5500		2.14872e-06		0e-3		-9.35531e-09
  3.6000		2.56896e-06		0e-3		-9.19688e-09
  3.6500		3.06001e-06		0e-3		-9.22012e-09
  3.7000		3.61471e-06		0e-3		-9.29666e-09
  3.7500		4.22255e-06		0e-3		-9.24027e-09
  3.8000		4.90837e-06		0e-3		-9.17900e-09
  3.8500		5.65815e-06		0e-3		-9.22954e-09
  3.9000		6.46472e-06		0e-3		-9.26793e-09
  3.9500		7.34901e-06		0e-3		-9.26685e-09
  4.0000		8.28064e-06		0e-3		-9.25696e-09
  4.0500		9.25446e-06		0e-3		-9.26876e-09
  4.1000		1.02909e-05		0e-3		-9.31716e-09
  4.1500		1.13598e-05		0e-3		-9.28652e-09
  4.2000		1.24862e-05		0e-3		-9.27067e-09
  4.2500		1.36676e-05		0e-3		-9.29189e-09
  4.3000		1.48699e-05		0e-3		-9.26650e-09
  4.3500		1.61612e-05		0e-3		-9.27162e-09
  4.4000		1.74301e-05		0e-3		-9.30691e-09
  4.4500		1.87806e-05		0e-3		-9.30226e-09
  4.5000		2.01598e-05		0e-3		-9.26662e-09
  4.5500		2.15490e-05		0e-3		-9.24563e-09
  4.6000		2.29737e-05		0e-3		-9.27007e-09
  4.6500		2.44464e-05		0e-3		-9.28080e-09
  4.7000		2.59414e-05		0e-3		-9.28807e-09
  4.7500		2.74609e-05		0e-3		-9.27615e-09
  4.8000		2.90256e-05		0e-3		-9.26065e-09
  4.8500		3.06226e-05		0e-3		-9.27639e-09
  4.9000		3.22266e-05		0e-3		-9.23288e-09
  4.9500		3.38593e-05		0e-3		-9.26662e-09
  5.0000		3.55310e-05		0e-3		-9.26352e-09
END_DB

BEGIN_DB
 ICCAP_VAR vb	1.0000
 ICCAP_VAR vg	2.0000
 ICCAP_VAR ve	0
 ICCAP_VAR vs	0

 #vd              id              ib              ig
  0.0000		-1.86603e-08		0e-3		-9.20832e-09
  0.0500		5.00748e-05		0e-3		-9.19890e-09
  0.1000		9.37672e-05		0e-3		-9.18376e-09
  0.1500		1.29795e-04		0e-3		-9.20618e-09
  0.2000		1.59109e-04		0e-3		-9.23705e-09
  0.2500		1.81520e-04		0e-3		-9.24587e-09
  0.3000		1.98042e-04		0e-3		-9.23896e-09
  0.3500		2.09510e-04		0e-3		-9.24385e-09
  0.4000		2.17235e-04		0e-3		-9.23204e-09
  0.4500		2.22278e-04		0e-3		-9.22704e-09
  0.5000		2.25842e-04		0e-3		-9.22072e-09
  0.5500		2.28512e-04		0e-3		-9.21071e-09
  0.6000		2.30598e-04		0e-3		-9.21082e-09
  0.6500		2.32232e-04		0e-3		-9.23467e-09
  0.7000		2.33698e-04		0e-3		-9.22871e-09
  0.7500		2.35045e-04		0e-3		-9.26054e-09
  0.8000		2.36464e-04		0e-3		-9.28164e-09
  0.8500		2.37584e-04		0e-3		-9.28342e-09
  0.9000		2.38669e-04		0e-3		-9.27985e-09
  0.9500		2.39897e-04		0e-3		-9.28783e-09
  1.0000		2.40898e-04		0e-3		-9.26137e-09
  1.0500		2.41888e-04		0e-3		-9.25136e-09
  1.1000		2.42865e-04		0e-3		-9.31191e-09
  1.1500		2.43676e-04		0e-3		-9.25195e-09
  1.2000		2.44844e-04		0e-3		-9.31394e-09
  1.2500		2.45774e-04		0e-3		-9.25100e-09
  1.3000		2.46573e-04		0e-3		-9.24230e-09
  1.3500		2.47300e-04		0e-3		-9.23455e-09
  1.4000		2.48194e-04		0e-3		-9.28223e-09
  1.4500		2.48849e-04		0e-3		-9.29725e-09
  1.5000		2.49648e-04		0e-3		-9.27413e-09
  1.5500		2.50375e-04		0e-3		-9.27866e-09
  1.6000		2.51269e-04		0e-3		-9.28962e-09
  1.6500		2.52128e-04		0e-3		-9.27818e-09
  1.7000		2.52950e-04		0e-3		-9.24230e-09
  1.7500		2.53809e-04		0e-3		-9.23943e-09
  1.8000		2.54905e-04		0e-3		-9.23896e-09
  1.8500		2.55859e-04		0e-3		-9.28974e-09
  1.9000		2.57540e-04		0e-3		-9.28569e-09
  1.9500		2.59495e-04		0e-3		-9.30297e-09
  2.0000		2.62237e-04		0e-3		-9.31251e-09
  2.0500		2.66063e-04		0e-3		-9.27901e-09
  2.1000		2.71142e-04		0e-3		-9.25779e-09
  2.1500		2.77472e-04		0e-3		-9.25565e-09
  2.2000		2.85149e-04		0e-3		-9.25362e-09
  2.2500		2.93994e-04		0e-3		-9.25040e-09
  2.3000		3.03793e-04		0e-3		-9.28199e-09
  2.3500		3.14307e-04		0e-3		-9.30774e-09
  2.4000		3.25346e-04		0e-3		-9.28366e-09
  2.4500		3.36742e-04		0e-3		-9.25958e-09
  2.5000		3.48437e-04		0e-3		-9.28557e-09
  2.5500		3.60155e-04		0e-3		-9.24635e-09
  2.6000		3.71885e-04		0e-3		-9.28342e-09
  2.6500		3.83711e-04		0e-3		-9.29928e-09
  2.7000		3.95417e-04		0e-3		-9.29165e-09
  2.7500		4.06992e-04		0e-3		-9.30393e-09
  2.8000		4.18425e-04		0e-3		-9.31346e-09
  2.8500		4.29845e-04		0e-3		-9.29904e-09
  2.9000		4.41003e-04		0e-3		-9.29272e-09
  2.9500		4.52065e-04		0e-3		-9.30715e-09
  3.0000		4.63068e-04		0e-3		-9.28211e-09
  3.0500		4.73845e-04		0e-3		-9.30309e-09
  3.1000		4.84359e-04		0e-3		-9.31382e-09
  3.1500		4.94885e-04		0e-3		-9.28235e-09
  3.2000		5.05221e-04		0e-3		-9.28116e-09
  3.2500		5.15401e-04		0e-3		-9.33349e-09
  3.3000		5.25463e-04		0e-3		-9.27091e-09
  3.3500		5.35381e-04		0e-3		-9.27114e-09
  3.4000		5.45156e-04		0e-3		-9.31191e-09
  3.4500		5.54800e-04		0e-3		-9.26662e-09
  3.5000		5.64384e-04		0e-3		-9.28521e-09
  3.5500		5.73790e-04		0e-3		-9.28426e-09
  3.6000		5.83065e-04		0e-3		-9.30095e-09
  3.6500		5.92172e-04		0e-3		-9.30274e-09
  3.7000		6.01244e-04		0e-3		-9.27186e-09
  3.7500		6.10352e-04		0e-3		-9.27210e-09
  3.8000		6.19316e-04		0e-3		-9.25612e-09
  3.8500		6.28197e-04		0e-3		-9.25815e-09
  3.9000		6.36959e-04		0e-3		-9.25148e-09
  3.9500		6.45816e-04		0e-3		-9.29666e-09
  4.0000		6.54519e-04		0e-3		-9.31013e-09
  4.0500		6.63149e-04		0e-3		-9.30381e-09
  4.1000		6.71864e-04		0e-3		-9.29177e-09
  4.1500		6.80351e-04		0e-3		-9.27866e-09
  4.2000		6.88970e-04		0e-3		-9.27365e-09
  4.2500		6.97470e-04		0e-3		-9.24635e-09
  4.3000		7.05922e-04		0e-3		-9.26626e-09
  4.3500		7.14409e-04		0e-3		-9.26554e-09
  4.4000		7.22909e-04		0e-3		-9.29499e-09
  4.4500		7.31266e-04		0e-3		-9.30572e-09
  4.5000		7.39646e-04		0e-3		-9.28748e-09
  4.5500		7.48205e-04		0e-3		-9.30464e-09
  4.6000		7.56598e-04		0e-3		-9.31060e-09
  4.6500		7.64966e-04		0e-3		-9.25422e-09
  4.7000		7.73406e-04		0e-3		-9.26828e-09
  4.7500		7.82013e-04		0e-3		-9.24110e-09
  4.8000		7.90358e-04		0e-3		-9.27794e-09
  4.8500		7.98917e-04		0e-3		-9.26209e-09
  4.9000		8.07440e-04		0e-3		-9.27591e-09
  4.9500		8.15940e-04		0e-3		-9.25338e-09
  5.0000		8.24595e-04		0e-3		-9.28736e-09
END_DB

BEGIN_DB
 ICCAP_VAR vb	1.0000
 ICCAP_VAR vg	3.0000
 ICCAP_VAR ve	0
 ICCAP_VAR vs	0

 #vd              id              ib              ig
  0.0000		-3.15728e-07		0e-3		-9.65691e-09
  0.0500		1.19674e-04		0e-3		-9.25136e-09
  0.1000		2.34461e-04		0e-3		-9.27937e-09
  0.1500		3.43084e-04		0e-3		-9.26542e-09
  0.2000		4.45306e-04		0e-3		-9.27138e-09
  0.2500		5.41043e-04		0e-3		-9.26101e-09
  0.3000		6.30128e-04		0e-3		-9.28712e-09
  0.3500		7.12895e-04		0e-3		-9.25219e-09
  0.4000		7.89058e-04		0e-3		-9.22406e-09
  0.4500		8.59118e-04		0e-3		-9.27591e-09
  0.5000		9.22716e-04		0e-3		-9.30202e-09
  0.5500		9.80401e-04		0e-3		-9.33313e-09
  0.6000		1.03186e-03		0e-3		-9.29654e-09
  0.6500		1.07734e-03		0e-3		-9.30524e-09
  0.7000		1.11727e-03		0e-3		-9.30071e-09
  0.7500		1.15180e-03		0e-3		-9.28843e-09
  0.8000		1.18161e-03		0e-3		-9.34839e-09
  0.8500		1.20627e-03		0e-3		-9.27985e-09
  0.9000		1.22743e-03		0e-3		-9.27639e-09
  0.9500		1.24459e-03		0e-3		-9.27854e-09
  1.0000		1.25883e-03		0e-3		-9.29356e-09
  1.0500		1.27107e-03		0e-3		-9.24432e-09
  1.1000		1.28071e-03		0e-3		-9.26113e-09
  1.1500		1.28930e-03		0e-3		-9.24814e-09
  1.2000		1.29687e-03		0e-3		-9.29272e-09
  1.2500		1.30295e-03		0e-3		-9.31942e-09
  1.3000		1.30872e-03		0e-3		-9.32765e-09
  1.3500		1.31370e-03		0e-3		-9.29153e-09
  1.4000		1.31893e-03		0e-3		-9.26948e-09
  1.4500		1.32335e-03		0e-3		-9.29260e-09
  1.5000		1.32757e-03		0e-3		-9.28402e-09
  1.5500		1.33140e-03		0e-3		-9.28676e-09
  1.6000		1.33557e-03		0e-3		-9.26721e-09
  1.6500		1.33981e-03		0e-3		-9.28521e-09
  1.7000		1.34313e-03		0e-3		-9.26638e-09
  1.7500		1.34667e-03		0e-3		-9.26304e-09
  1.8000		1.34995e-03		0e-3		-9.31203e-09
  1.8500		1.35188e-03		0e-3		-9.27973e-09
  1.9000		1.35589e-03		0e-3		-9.27830e-09
  1.9500		1.35850e-03		0e-3		-9.25481e-09
  2.0000		1.36160e-03		0e-3		-9.30285e-09
  2.0500		1.36399e-03		0e-3		-9.27281e-09
  2.1000		1.36714e-03		0e-3		-9.26352e-09
  2.1500		1.36977e-03		0e-3		-9.31060e-09
  2.2000		1.37290e-03		0e-3		-9.28843e-09
  2.2500		1.37590e-03		0e-3		-9.27043e-09
  2.3000		1.37922e-03		0e-3		-9.28974e-09
  2.3500		1.38365e-03		0e-3		-9.24420e-09
  2.4000		1.38837e-03		0e-3		-9.25589e-09
  2.4500		1.39461e-03		0e-3		-9.28021e-09
  2.5000		1.40247e-03		0e-3		-9.27126e-09
  2.5500		1.41261e-03		0e-3		-9.26864e-09
  2.6000		1.42620e-03		0e-3		-9.27341e-09
  2.6500		1.44215e-03		0e-3		-9.30691e-09
  2.7000		1.46030e-03		0e-3		-9.26232e-09
  2.7500		1.48042e-03		0e-3		-9.27675e-09
  2.8000		1.50180e-03		0e-3		-9.23669e-09
  2.8500		1.52438e-03		0e-3		-9.23622e-09
  2.9000		1.54719e-03		0e-3		-9.27615e-09
  2.9500		1.57055e-03		0e-3		-9.26816e-09
  3.0000		1.59378e-03		0e-3		-9.26328e-09
  3.0500		1.61673e-03		0e-3		-9.29344e-09
  3.1000		1.63957e-03		0e-3		-9.25267e-09
  3.1500		1.66218e-03		0e-3		-9.27973e-09
  3.2000		1.68443e-03		0e-3		-9.26900e-09
  3.2500		1.70645e-03		0e-3		-9.28950e-09
  3.3000		1.72774e-03		0e-3		-9.30691e-09
  3.3500		1.74888e-03		0e-3		-9.28926e-09
  3.4000		1.76952e-03		0e-3		-9.28032e-09
  3.4500		1.78988e-03		0e-3		-9.22215e-09
  3.5000		1.81000e-03		0e-3		-9.25672e-09
  3.5500		1.82940e-03		0e-3		-9.26125e-09
  3.6000		1.84840e-03		0e-3		-9.26936e-09
  3.6500		1.86716e-03		0e-3		-9.26411e-09
  3.7000		1.88540e-03		0e-3		-9.28450e-09
  3.7500		1.90376e-03		0e-3		-9.28366e-09
  3.8000		1.92144e-03		0e-3		-9.28652e-09
  3.8500		1.93896e-03		0e-3		-9.28354e-09
  3.9000		1.95565e-03		0e-3		-9.26435e-09
  3.9500		1.97260e-03		0e-3		-9.31251e-09
  4.0000		1.98905e-03		0e-3		-9.26423e-09
  4.0500		2.00539e-03		0e-3		-9.27377e-09
  4.1000		2.02126e-03		0e-3		-9.26387e-09
  4.1500		2.03700e-03		0e-3		-9.25195e-09
  4.2000		2.05256e-03		0e-3		-9.29344e-09
  4.2500		2.06769e-03		0e-3		-9.26662e-09
  4.3000		2.08303e-03		0e-3		-9.24635e-09
  4.3500		2.09781e-03		0e-3		-9.25446e-09
  4.4000		2.11276e-03		0e-3		-9.28783e-09
  4.4500		2.12743e-03		0e-3		-9.28164e-09
  4.5000		2.14177e-03		0e-3		-9.24063e-09
  4.5500		2.15617e-03		0e-3		-9.26125e-09
  4.6000		2.17056e-03		0e-3		-9.24003e-09
  4.6500		2.18471e-03		0e-3		-9.26161e-09
  4.7000		2.19873e-03		0e-3		-9.27532e-09
  4.7500		2.21276e-03		0e-3		-9.27854e-09
  4.8000		2.22703e-03		0e-3		-9.29523e-09
  4.8500		2.24084e-03		0e-3		-9.28891e-09
  4.9000		2.25476e-03		0e-3		-9.26149e-09
  4.9500		2.26876e-03		0e-3		-9.29463e-09
  5.0000		2.28252e-03		0e-3		-9.30834e-09
END_DB

BEGIN_DB
 ICCAP_VAR vb	1.0000
 ICCAP_VAR vg	4.0000
 ICCAP_VAR ve	0
 ICCAP_VAR vs	0

 #vd              id              ib              ig
  0.0000		-9.92572e-07		0e-3		-9.52244e-09
  0.0500		1.75953e-04		0e-3		-9.23657e-09
  0.1000		3.47650e-04		0e-3		-9.25267e-09
  0.1500		5.14603e-04		0e-3		-9.25279e-09
  0.2000		6.75833e-04		0e-3		-9.24623e-09
  0.2500		8.31616e-04		0e-3		-9.22811e-09
  0.3000		9.81855e-04		0e-3		-9.25982e-09
  0.3500		1.12649e-03		0e-3		-9.26411e-09
  0.4000		1.26570e-03		0e-3		-9.26352e-09
  0.4500		1.39925e-03		0e-3		-9.27925e-09
  0.5000		1.52707e-03		0e-3		-9.26662e-09
  0.5500		1.64945e-03		0e-3		-9.26292e-09
  0.6000		1.76625e-03		0e-3		-9.28891e-09
  0.6500		1.87746e-03		0e-3		-9.28044e-09
  0.7000		1.98369e-03		0e-3		-9.29582e-09
  0.7500		2.08364e-03		0e-3		-9.26411e-09
  0.8000		2.17885e-03		0e-3		-9.29034e-09
  0.8500		2.26806e-03		0e-3		-9.28569e-09
  0.9000		2.35243e-03		0e-3		-9.26614e-09
  0.9500		2.43087e-03		0e-3		-9.28462e-09
  1.0000		2.50425e-03		0e-3		-9.29534e-09
  1.0500		2.57223e-03		0e-3		-9.31859e-09
  1.1000		2.63542e-03		0e-3		-9.26816e-09
  1.1500		2.69303e-03		0e-3		-9.26316e-09
  1.2000		2.74599e-03		0e-3		-9.28640e-09
  1.2500		2.79381e-03		0e-3		-9.29928e-09
  1.3000		2.83753e-03		0e-3		-9.28330e-09
  1.3500		2.87656e-03		0e-3		-9.25755e-09
  1.4000		2.91147e-03		0e-3		-9.28175e-09
  1.4500		2.94307e-03		0e-3		-9.30262e-09
  1.5000		2.97106e-03		0e-3		-9.28104e-09
  1.5500		2.99567e-03		0e-3		-9.25291e-09
  1.6000		3.01752e-03		0e-3		-9.26292e-09
  1.6500		3.03729e-03		0e-3		-9.29773e-09
  1.7000		3.05462e-03		0e-3		-9.27591e-09
  1.7500		3.06927e-03		0e-3		-9.25684e-09
  1.8000		3.08337e-03		0e-3		-9.26852e-09
  1.8500		3.09647e-03		0e-3		-9.28557e-09
  1.9000		3.10715e-03		0e-3		-9.27508e-09
  1.9500		3.11579e-03		0e-3		-9.28199e-09
  2.0000		3.12451e-03		0e-3		-9.25922e-09
  2.0500		3.13330e-03		0e-3		-9.31203e-09
  2.1000		3.14196e-03		0e-3		-9.29129e-09
