! VERSION = 6.00
BEGIN_HEADER
 ICCAP_INPUTS
  vg         V  G GROUND SMU2 1E-005 LIN	2	0	5	26	0.2
  vb         V  B GROUND SMU4 0.01 LIN	3	1         1         1    1        
  vd         V  D GROUND SMU1 0.1 LIN	1	0          5          26   0.2       
  vs         V  S GROUND SMU3 0.1 CON        0
  ve         V  E GROUND SMU5 0.1 CON        0
 ICCAP_OUTPUTS
  id         I  D GROUND SMU1 B
  ib         I  D GROUND SMU4 B
  ig         I  D GROUND SMU2 B
END_HEADER


BEGIN_DB
 ICCAP_VAR vb	1.0000
 ICCAP_VAR vg	0.0000
 ICCAP_VAR ve	0
 ICCAP_VAR vs	0

 #vd              id              ib              ig
  0.0000		-2.30432e-10		0e-3		-9.32670e-09
  0.2000		6.87838e-11		0e-3		-9.26959e-09
  0.4000		1.29819e-10		0e-3		-9.27067e-09
  0.6000		1.77622e-10		0e-3		-9.24838e-09
  0.8000		2.05517e-10		0e-3		-9.25994e-09
  1.0000		2.59399e-10		0e-3		-9.26566e-09
  1.2000		3.42727e-10		0e-3		-9.26280e-09
  1.4000		3.83973e-10		0e-3		-9.30178e-09
  1.6000		2.44260e-10		0e-3		-9.22942e-09
  1.8000		4.11391e-10		0e-3		-9.26697e-09
  2.0000		4.58002e-10		0e-3		-9.26959e-09
  2.2000		5.15819e-10		0e-3		-9.29093e-09
  2.4000		5.85794e-10		0e-3		-9.13525e-09
  2.6000		5.96881e-10		0e-3		-9.33766e-09
  2.8000		6.39915e-10		0e-3		-9.29344e-09
  3.0000		6.76393e-10		0e-3		-9.27901e-09
  3.2000		7.31230e-10		0e-3		-9.25148e-09
  3.4000		7.85947e-10		0e-3		-9.29320e-09
  3.6000		8.30531e-10		0e-3		-9.28295e-09
  3.8000		9.47356e-10		0e-3		-9.31025e-09
  4.0000		9.83357e-10		0e-3		-9.29952e-09
  4.2000		1.05369e-09		0e-3		-9.25958e-09
  4.4000		1.03033e-09		0e-3		-9.26662e-09
  4.6000		1.21570e-09		0e-3		-9.29451e-09
  4.8000		1.29688e-09		0e-3		-9.32097e-09
  5.0000		1.37246e-09		0e-3		-9.26709e-09
END_DB

BEGIN_DB
 ICCAP_VAR vb	1.0000
 ICCAP_VAR vg	0.2000
 ICCAP_VAR ve	0
 ICCAP_VAR vs	0

 #vd              id              ib              ig
  0.0000		-2.83599e-10		0e-3		-9.36031e-09
  0.2000		1.02437e-09		0e-3		-9.26697e-09
  0.4000		1.34826e-09		0e-3		-9.29070e-09
  0.6000		1.48940e-09		0e-3		-9.26924e-09
  0.8000		1.67298e-09		0e-3		-9.24551e-09
  1.0000		1.71137e-09		0e-3		-9.26924e-09
  1.2000		1.92654e-09		0e-3		-9.29630e-09
  1.4000		2.03621e-09		0e-3		-9.26697e-09
  1.6000		2.03872e-09		0e-3		-9.30679e-09
  1.8000		2.21109e-09		0e-3		-9.29189e-09
  2.0000		2.27630e-09		0e-3		-9.31609e-09
  2.2000		2.45035e-09		0e-3		-9.31096e-09
  2.4000		2.56002e-09		0e-3		-9.30989e-09
  2.6000		2.68984e-09		0e-3		-9.31978e-09
  2.8000		2.64108e-09		0e-3		-9.29689e-09
  3.0000		2.77472e-09		0e-3		-9.28485e-09
  3.2000		2.96700e-09		0e-3		-9.27496e-09
  3.4000		3.17729e-09		0e-3		-9.28819e-09
  3.6000		3.29113e-09		0e-3		-9.31883e-09
  3.8000		3.37243e-09		0e-3		-9.30750e-09
  4.0000		3.67331e-09		0e-3		-9.26757e-09
  4.2000		3.69644e-09		0e-3		-9.27043e-09
  4.4000		3.96764e-09		0e-3		-9.29916e-09
  4.6000		3.93462e-09		0e-3		-9.28295e-09
  4.8000		4.16744e-09		0e-3		-9.28152e-09
  5.0000		4.27759e-09		0e-3		-9.31883e-09
END_DB

BEGIN_DB
 ICCAP_VAR vb	1.0000
 ICCAP_VAR vg	0.4000
 ICCAP_VAR ve	0
 ICCAP_VAR vs	0

 #vd              id              ib              ig
  0.0000		-3.08275e-10		0e-3		-9.28175e-09
  0.2000		4.04644e-09		0e-3		-9.26113e-09
  0.4000		4.99082e-09		0e-3		-9.26483e-09
  0.6000		5.57888e-09		0e-3		-9.27711e-09
  0.8000		5.83756e-09		0e-3		-9.30226e-09
  1.0000		6.27232e-09		0e-3		-9.31907e-09
  1.2000		6.53136e-09		0e-3		-9.30238e-09
  1.4000		6.69730e-09		0e-3		-9.33516e-09
  1.6000		6.95181e-09		0e-3		-9.25732e-09
  1.8000		7.14815e-09		0e-3		-9.36425e-09
  2.0000		7.56454e-09		0e-3		-9.22739e-09
  2.2000		7.98094e-09		0e-3		-9.28068e-09
  2.4000		8.21102e-09		0e-3		-9.27782e-09
  2.6000		8.37565e-09		0e-3		-9.27985e-09
  2.8000		8.55160e-09		0e-3		-9.28390e-09
  3.0000		8.54146e-09		0e-3		-9.28140e-09
  3.2000		9.52375e-09		0e-3		-9.32002e-09
  3.4000		9.37462e-09		0e-3		-9.26745e-09
  3.6000		9.67145e-09		0e-3		-9.26173e-09
  3.8000		9.77576e-09		0e-3		-9.29451e-09
  4.0000		1.01187e-08		0e-3		-9.29785e-09
  4.2000		1.03263e-08		0e-3		-9.34195e-09
  4.4000		1.07054e-08		0e-3		-9.23896e-09
  4.6000		1.13505e-08		0e-3		-9.25672e-09
  4.8000		1.15068e-08		0e-3		-9.33087e-09
  5.0000		1.19483e-08		0e-3		-9.31311e-09
END_DB

BEGIN_DB
 ICCAP_VAR vb	1.0000
 ICCAP_VAR vg	0.6000
 ICCAP_VAR ve	0
 ICCAP_VAR vs	0

 #vd              id              ib              ig
  0.0000		-3.56674e-10		0e-3		-9.37378e-09
  0.2000		1.85833e-08		0e-3		-9.26840e-09
  0.4000		2.10768e-08		0e-3		-9.25529e-09
  0.6000		2.26789e-08		0e-3		-9.30524e-09
  0.8000		2.42773e-08		0e-3		-9.28414e-09
  1.0000		2.40990e-08		0e-3		-9.28259e-09
  1.2000		2.48336e-08		0e-3		-9.31096e-09
  1.4000		2.58896e-08		0e-3		-9.31823e-09
  1.6000		2.64676e-08		0e-3		-9.32622e-09
  1.8000		2.72862e-08		0e-3		-9.29654e-09
  2.0000		2.75227e-08		0e-3		-9.28271e-09
  2.2000		2.80348e-08		0e-3		-9.31287e-09
  2.4000		2.88446e-08		0e-3		-9.28998e-09
  2.6000		2.96084e-08		0e-3		-9.25577e-09
  2.8000		2.98475e-08		0e-3		-9.26006e-09
  3.0000		3.11877e-08		0e-3		-9.23777e-09
  3.2000		3.14707e-08		0e-3		-9.29260e-09
  3.4000		3.23347e-08		0e-3		-9.24909e-09
  3.6000		3.42910e-08		0e-3		-9.27222e-09
  3.8000		3.56594e-08		0e-3		-9.29368e-09
  4.0000		3.79908e-08		0e-3		-9.33349e-09
  4.2000		3.90428e-08		0e-3		-9.33933e-09
  4.4000		4.18088e-08		0e-3		-9.31132e-09
  4.6000		4.37539e-08		0e-3		-9.26959e-09
  4.8000		4.62204e-08		0e-3		-9.34875e-09
  5.0000		4.86588e-08		0e-3		-9.31227e-09
END_DB

BEGIN_DB
 ICCAP_VAR vb	1.0000
 ICCAP_VAR vg	0.8000
 ICCAP_VAR ve	0
 ICCAP_VAR vs	0

 #vd              id              ib              ig
  0.0000		-4.03523e-10		0e-3		-9.28843e-09
  0.2000		7.39050e-08		0e-3		-9.28617e-09
  0.4000		8.93784e-08		0e-3		-9.33659e-09
  0.6000		9.45687e-08		0e-3		-9.35864e-09
  0.8000		9.71472e-08		0e-3		-9.32980e-09
  1.0000		1.00002e-07		0e-3		-9.34243e-09
  1.2000		1.02046e-07		0e-3		-9.30893e-09
  1.4000		1.03157e-07		0e-3		-9.32515e-09
  1.6000		1.04424e-07		0e-3		-9.36234e-09
  1.8000		1.07156e-07		0e-3		-9.33731e-09
  2.0000		1.08865e-07		0e-3		-9.30333e-09
  2.2000		1.12528e-07		0e-3		-9.30250e-09
  2.4000		1.11549e-07		0e-3		-9.34660e-09
  2.6000		1.15222e-07		0e-3		-9.31323e-09
  2.8000		1.15658e-07		0e-3		-9.32884e-09
  3.0000		1.20485e-07		0e-3		-9.30524e-09
  3.2000		1.23876e-07		0e-3		-9.27174e-09
  3.4000		1.30737e-07		0e-3		-9.29105e-09
  3.6000		1.38866e-07		0e-3		-9.20951e-09
  3.8000		1.48710e-07		0e-3		-9.35102e-09
  4.0000		1.63143e-07		0e-3		-9.37748e-09
  4.2000		1.81390e-07		0e-3		-9.37235e-09
  4.4000		2.09721e-07		0e-3		-9.36508e-09
  4.6000		2.55671e-07		0e-3		-9.37378e-09
  4.8000		3.29874e-07		0e-3		-9.34684e-09
  5.0000		4.61644e-07		0e-3		-9.32503e-09
END_DB

BEGIN_DB
 ICCAP_VAR vb	1.0000
 ICCAP_VAR vg	1.0000
 ICCAP_VAR ve	0
 ICCAP_VAR vs	0

 #vd              id              ib              ig
  0.0000		-1.05476e-09		0e-3		-9.29868e-09
  0.2000		2.36523e-07		0e-3		-9.32562e-09
  0.4000		3.06544e-07		0e-3		-9.33576e-09
  0.6000		3.30055e-07		0e-3		-9.31156e-09
  0.8000		3.42252e-07		0e-3		-9.31215e-09
  1.0000		3.53451e-07		0e-3		-9.34911e-09
  1.2000		3.59415e-07		0e-3		-9.32693e-09
  1.4000		3.64777e-07		0e-3		-9.33313e-09
  1.6000		3.72217e-07		0e-3		-9.31549e-09
  1.8000		3.79404e-07		0e-3		-9.30619e-09
  2.0000		3.86764e-07		0e-3		-9.30727e-09
  2.2000		3.94074e-07		0e-3		-9.32395e-09
  2.4000		4.04286e-07		0e-3		-9.30583e-09
  2.6000		4.24011e-07		0e-3		-9.31263e-09
  2.8000		4.62517e-07		0e-3		-9.31466e-09
  3.0000		5.46443e-07		0e-3		-9.32765e-09
  3.2000		7.49242e-07		0e-3		-9.36008e-09
  3.4000		1.28087e-06		0e-3		-9.35578e-09
  3.6000		2.58055e-06		0e-3		-9.34804e-09
  3.8000		4.95158e-06		0e-3		-9.32980e-09
  4.0000		8.34191e-06		0e-3		-9.33027e-09
  4.2000		1.25760e-05		0e-3		-9.29439e-09
  4.4000		1.75316e-05		0e-3		-9.26804e-09
  4.6000		2.30628e-05		0e-3		-9.28605e-09
  4.8000		2.91215e-05		0e-3		-9.28688e-09
  5.0000		3.56357e-05		0e-3		-9.27079e-09
END_DB

BEGIN_DB
 ICCAP_VAR vb	1.0000
 ICCAP_VAR vg	1.2000
 ICCAP_VAR ve	0
 ICCAP_VAR vs	0

 #vd              id              ib              ig
  0.0000		-1.00077e-08		0e-3		-9.20844e-09
  0.2000		1.55265e-06		0e-3		-9.23538e-09
  0.4000		1.85271e-06		0e-3		-9.27258e-09
  0.6000		1.99864e-06		0e-3		-9.28891e-09
  0.8000		2.09763e-06		0e-3		-9.28175e-09
  1.0000		2.19226e-06		0e-3		-9.30870e-09
  1.2000		2.25921e-06		0e-3		-9.33504e-09
  1.4000		2.31847e-06		0e-3		-9.28950e-09
  1.6000		2.37919e-06		0e-3		-9.27722e-09
  1.8000		2.46398e-06		0e-3		-9.25064e-09
  2.0000		2.61564e-06		0e-3		-9.27246e-09
  2.2000		3.00959e-06		0e-3		-9.29034e-09
  2.4000		4.02943e-06		0e-3		-9.26900e-09
  2.6000		6.64282e-06		0e-3		-9.28879e-09
  2.8000		1.14022e-05		0e-3		-9.32729e-09
  3.0000		1.79257e-05		0e-3		-9.27556e-09
  3.2000		2.56947e-05		0e-3		-9.26423e-09
  3.4000		3.44062e-05		0e-3		-9.29618e-09
  3.6000		4.38330e-05		0e-3		-9.25005e-09
  3.8000		5.34773e-05		0e-3		-9.27699e-09
  4.0000		6.41227e-05		0e-3		-9.29773e-09
  4.2000		7.51734e-05		0e-3		-9.31072e-09
  4.4000		8.65936e-05		0e-3		-9.30703e-09
  4.6000		9.83357e-05		0e-3		-9.27866e-09
  4.8000		1.10495e-04		0e-3		-9.30560e-09
  5.0000		1.23048e-04		0e-3		-9.30214e-09
END_DB

BEGIN_DB
 ICCAP_VAR vb	1.0000
 ICCAP_VAR vg	1.4000
 ICCAP_VAR ve	0
 ICCAP_VAR vs	0

 #vd              id              ib              ig
  0.0000		-3.24379e-08		0e-3		-9.15682e-09
  0.2000		1.21028e-05		0e-3		-9.23479e-09
  0.4000		1.34051e-05		0e-3		-9.25314e-09
  0.6000		1.41215e-05		0e-3		-9.25386e-09
  0.8000		1.46490e-05		0e-3		-9.26030e-09
  1.0000		1.51753e-05		0e-3		-9.23073e-09
  1.2000		1.56046e-05		0e-3		-9.29105e-09
  1.4000		1.59633e-05		0e-3		-9.27007e-09
  1.6000		1.63691e-05		0e-3		-9.25696e-09
  1.8000		1.71567e-05		0e-3		-9.22525e-09
  2.0000		1.91696e-05		0e-3		-9.27103e-09
  2.2000		2.46017e-05		0e-3		-9.28462e-09
  2.4000		3.46922e-05		0e-3		-9.33194e-09
  2.6000		4.81306e-05		0e-3		-9.33600e-09
  2.8000		6.28114e-05		0e-3		-9.30262e-09
  3.0000		7.86781e-05		0e-3		-9.30631e-09
  3.2000		9.49979e-05		0e-3		-9.30011e-09
  3.4000		1.11508e-04		0e-3		-9.32014e-09
  3.6000		1.28150e-04		0e-3		-9.29654e-09
  3.8000		1.44947e-04		0e-3		-9.29749e-09
  4.0000		1.62017e-04		0e-3		-9.27162e-09
  4.2000		1.79195e-04		0e-3		-9.27222e-09
  4.4000		1.96600e-04		0e-3		-9.28712e-09
  4.6000		2.14291e-04		0e-3		-9.28676e-09
  4.8000		2.32160e-04		0e-3		-9.27460e-09
  5.0000		2.50447e-04		0e-3		-9.27389e-09
END_DB

BEGIN_DB
 ICCAP_VAR vb	1.0000
 ICCAP_VAR vg	1.6000
 ICCAP_VAR ve	0
 ICCAP_VAR vs	0

 #vd              id              ib              ig
  0.0000		-3.77229e-08		0e-3		-9.15503e-09
  0.2000		4.49392e-05		0e-3		-9.18388e-09
  0.4000		5.01879e-05		0e-3		-9.26387e-09
  0.6000		5.17368e-05		0e-3		-9.28462e-09
  0.8000		5.32508e-05		0e-3		-9.26435e-09
  1.0000		5.46813e-05		0e-3		-9.24396e-09
  1.2000		5.59449e-05		0e-3		-9.27269e-09
  1.4000		5.71012e-05		0e-3		-9.29225e-09
  1.6000		5.80788e-05		0e-3		-9.30595e-09
  1.8000		6.00576e-05		0e-3		-9.27353e-09
  2.0000		6.58751e-05		0e-3		-9.27770e-09
  2.2000		7.99775e-05		0e-3		-9.27842e-09
  2.4000		1.01495e-04		0e-3		-9.28140e-09
  2.6000		1.25945e-04		0e-3		-9.29523e-09
  2.8000		1.51277e-04		0e-3		-9.30870e-09
  3.0000		1.76394e-04		0e-3		-9.31156e-09
  3.2000		2.01249e-04		0e-3		-9.28605e-09
  3.4000		2.25413e-04		0e-3		-9.31883e-09
  3.6000		2.49088e-04		0e-3		-9.31001e-09
  3.8000		2.72477e-04		0e-3		-9.28903e-09
  4.0000		2.95770e-04		0e-3		-9.23669e-09
  4.2000		3.18825e-04		0e-3		-9.25660e-09
  4.4000		3.42035e-04		0e-3		-9.27842e-09
  4.6000		3.65245e-04		0e-3		-9.28199e-09
  4.8000		3.88753e-04		0e-3		-9.33719e-09
  5.0000		4.12488e-04		0e-3		-9.27043e-09
END_DB

BEGIN_DB
 ICCAP_VAR vb	1.0000
 ICCAP_VAR vg	1.8000
 ICCAP_VAR ve	0
 ICCAP_VAR vs	0

 #vd              id              ib              ig
  0.0000		-2.86790e-08		0e-3		-9.02975e-09
  0.2000		9.79394e-05		0e-3		-9.22584e-09
  0.4000		1.18530e-04		0e-3		-9.24838e-09
  0.6000		1.23549e-04		0e-3		-9.22811e-09
  0.8000		1.26874e-04		0e-3		-9.25791e-09
  1.0000		1.29545e-04		0e-3		-9.23955e-09
  1.2000		1.32000e-04		0e-3		-9.31656e-09
  1.4000		1.34134e-04		0e-3		-9.31597e-09
  1.6000		1.36125e-04		0e-3		-9.26709e-09
  1.8000		1.39129e-04		0e-3		-9.28628e-09
  2.0000		1.46937e-04		0e-3		-9.28307e-09
  2.2000		1.67644e-04		0e-3		-9.29582e-09
  2.4000		1.99497e-04		0e-3		-9.34005e-09
  2.6000		2.35319e-04		0e-3		-9.28688e-09
  2.8000		2.71165e-04		0e-3		-9.31132e-09
  3.0000		3.05831e-04		0e-3		-9.27806e-09
  3.2000		3.39234e-04		0e-3		-9.31621e-09
  3.4000		3.71265e-04		0e-3		-9.31299e-09
  3.6000		4.02117e-04		0e-3		-9.30357e-09
  3.8000		4.32110e-04		0e-3		-9.31132e-09
  4.0000		4.61388e-04		0e-3		-9.31370e-09
  4.2000		4.90248e-04		0e-3		-9.31716e-09
  4.4000		5.18799e-04		0e-3		-9.28712e-09
  4.6000		5.47588e-04		0e-3		-9.26828e-09
  4.8000		5.76317e-04		0e-3		-9.30822e-09
  5.0000		6.05607e-04		0e-3		-9.34029e-09
END_DB

BEGIN_DB
 ICCAP_VAR vb	1.0000
 ICCAP_VAR vg	2.0000
 ICCAP_VAR ve	0
 ICCAP_VAR vs	0

 #vd              id              ib              ig
  0.0000		-2.92338e-08		0e-3		-9.14526e-09
  0.2000		1.58417e-04		0e-3		-9.26626e-09
  0.4000		2.16472e-04		0e-3		-9.27401e-09
  0.6000		2.29990e-04		0e-3		-9.30202e-09
  0.8000		2.36297e-04		0e-3		-9.28140e-09
  1.0000		2.41053e-04		0e-3		-9.29201e-09
  1.2000		2.45047e-04		0e-3		-9.28283e-09
  1.4000		2.48671e-04		0e-3		-9.26197e-09
  1.6000		2.52008e-04		0e-3		-9.30572e-09
  1.8000		2.55442e-04		0e-3		-9.28223e-09
  2.0000		2.63286e-04		0e-3		-9.28021e-09
  2.2000		2.85828e-04		0e-3		-9.32121e-09
  2.4000		3.25930e-04		0e-3		-9.26387e-09
  2.6000		3.72458e-04		0e-3		-9.28378e-09
  2.8000		4.19021e-04		0e-3		-9.24897e-09
  3.0000		4.63605e-04		0e-3		-9.27198e-09
  3.2000		5.06103e-04		0e-3		-9.29260e-09
  3.4000		5.46134e-04		0e-3		-9.23860e-09
  3.6000		5.84316e-04		0e-3		-9.26590e-09
  3.8000		6.20842e-04		0e-3		-9.23920e-09
  4.0000		6.56319e-04		0e-3		-9.30917e-09
  4.2000		6.90734e-04		0e-3		-9.29391e-09
  4.4000		7.25031e-04		0e-3		-9.30882e-09
  4.6000		7.58827e-04		0e-3		-9.28342e-09
  4.8000		7.92897e-04		0e-3		-9.27830e-09
  5.0000		8.27134e-04		0e-3		-9.29010e-09
END_DB

BEGIN_DB
 ICCAP_VAR vb	1.0000
 ICCAP_VAR vg	2.2000
 ICCAP_VAR ve	0
 ICCAP_VAR vs	0

 #vd              id              ib              ig
  0.0000		-2.73664e-08		0e-3		-9.25314e-09
  0.2000		2.20335e-04		0e-3		-9.26614e-09
  0.4000		3.31247e-04		0e-3		-9.26888e-09
  0.6000		3.67522e-04		0e-3		-9.25136e-09
  0.8000		3.80051e-04		0e-3		-9.26673e-09
  1.0000		3.87859e-04		0e-3		-9.26697e-09
  1.2000		3.94034e-04		0e-3		-9.27067e-09
  1.4000		3.99399e-04		0e-3		-9.29403e-09
  1.6000		4.04394e-04		0e-3		-9.27186e-09
  1.8000		4.08852e-04		0e-3		-9.26948e-09
  2.0000		4.15730e-04		0e-3		-9.30357e-09
  2.2000		4.35269e-04		0e-3		-9.27246e-09
  2.4000		4.78899e-04		0e-3		-9.29642e-09
  2.6000		5.35071e-04		0e-3		-9.29940e-09
  2.8000		5.92506e-04		0e-3		-9.20379e-09
  3.0000		6.47509e-04		0e-3		-9.26197e-09
  3.2000		6.99270e-04		0e-3		-9.27496e-09
  3.4000		7.47859e-04		0e-3		-9.28617e-09
  3.6000		7.93791e-04		0e-3		-9.28318e-09
  3.8000		8.37064e-04		0e-3		-9.28795e-09
  4.0000		8.78632e-04		0e-3		-9.26054e-09
  4.2000		9.18782e-04		0e-3		-9.30417e-09
  4.4000		9.58145e-04		0e-3		-9.27961e-09
  4.6000		9.97066e-04		0e-3		-9.27496e-09
  4.8000		1.03592e-03		0e-3		-9.27401e-09
  5.0000		1.07508e-03		0e-3		-9.30822e-09
END_DB

BEGIN_DB
 ICCAP_VAR vb	1.0000
 ICCAP_VAR vg	2.4000
 ICCAP_VAR ve	0
 ICCAP_VAR vs	0

 #vd              id              ib              ig
  0.0000		-1.27922e-08		0e-3		-9.48179e-09
  0.2000		2.80571e-04		0e-3		-9.22143e-09
  0.4000		4.50802e-04		0e-3		-9.20725e-09
  0.6000		5.27418e-04		0e-3		-9.25887e-09
  0.8000		5.54609e-04		0e-3		-9.26471e-09
  1.0000		5.67591e-04		0e-3		-9.27198e-09
  1.2000		5.76842e-04		0e-3		-9.27460e-09
  1.4000		5.84722e-04		0e-3		-9.32646e-09
  1.6000		5.91397e-04		0e-3		-9.35519e-09
  1.8000		5.97715e-04		0e-3		-9.27138e-09
  2.0000		6.04200e-04		0e-3		-9.28891e-09
  2.2000		6.18923e-04		0e-3		-9.28771e-09
  2.4000		6.58977e-04		0e-3		-9.29201e-09
  2.6000		7.21467e-04		0e-3		-9.28318e-09
  2.8000		7.89022e-04		0e-3		-9.32145e-09
  3.0000		8.54504e-04		0e-3		-9.23347e-09
  3.2000		9.16040e-04		0e-3		-9.27174e-09
  3.4000		9.73642e-04		0e-3		-9.32348e-09
  3.6000		1.02706e-03		0e-3		-9.32169e-09
  3.8000		1.07751e-03		0e-3		-9.28938e-09
  4.0000		1.12542e-03		0e-3		-9.25779e-09
  4.2000		1.17134e-03		0e-3		-9.28664e-09
  4.4000		1.21601e-03		0e-3		-9.31621e-09
  4.6000		1.25982e-03		0e-3		-9.32586e-09
  4.8000		1.30318e-03		0e-3		-9.30524e-09
  5.0000		1.34704e-03		0e-3		-9.28593e-09
END_DB

BEGIN_DB
 ICCAP_VAR vb	1.0000
 ICCAP_VAR vg	2.6000
 ICCAP_VAR ve	0
 ICCAP_VAR vs	0

 #vd              id              ib              ig
  0.0000		1.73590e-08		0e-3		-9.23729e-09
  0.2000		3.38280e-04		0e-3		-9.26793e-09
  0.4000		5.68342e-04		0e-3		-9.28009e-09
  0.6000		6.97148e-04		0e-3		-9.31811e-09
  0.8000		7.53427e-04		0e-3		-9.31871e-09
  1.0000		7.77447e-04		0e-3		-9.33051e-09
  1.2000		7.91812e-04		0e-3		-9.28450e-09
  1.4000		8.02982e-04		0e-3		-9.30035e-09
  1.6000		8.11756e-04		0e-3		-9.30810e-09
  1.8000		8.19886e-04		0e-3		-9.31847e-09
  2.0000		8.28064e-04		0e-3		-9.29391e-09
  2.2000		8.39424e-04		0e-3		-9.30500e-09
  2.4000		8.69596e-04		0e-3		-9.31299e-09
  2.6000		9.31489e-04		0e-3		-9.31108e-09
  2.8000		1.00751e-03		0e-3		-9.30643e-09
  3.0000		1.08341e-03		0e-3		-9.27877e-09
  3.2000		1.15486e-03		0e-3		-9.30285e-09
  3.4000		1.22155e-03		0e-3		-9.29582e-09
  3.6000		1.28351e-03		0e-3		-9.36162e-09
  3.8000		1.34125e-03		0e-3		-9.34422e-09
  4.0000		1.39552e-03		0e-3		-9.34649e-09
  4.2000		1.44742e-03		0e-3		-9.32658e-09
  4.4000		1.49704e-03		0e-3		-9.28438e-09
  4.6000		1.54557e-03		0e-3		-9.26435e-09
  4.8000		1.59365e-03		0e-3		-9.30965e-09
  5.0000		1.64174e-03		0e-3		-9.30822e-09
END_DB

BEGIN_DB
 ICCAP_VAR vb	1.0000
 ICCAP_VAR vg	2.8000
 ICCAP_VAR ve	0
 ICCAP_VAR vs	0

 #vd              id              ib              ig
  0.0000		-2.31937e-07		0e-3		-9.48024e-09
  0.2000		3.93569e-04		0e-3		-9.24957e-09
  0.4000		6.81984e-04		0e-3		-9.27317e-09
  0.6000		8.67867e-04		0e-3		-9.24778e-09
  0.8000		9.66883e-04		0e-3		-9.26697e-09
  1.0000		1.01184e-03		0e-3		-9.27830e-09
  1.2000		1.03452e-03		0e-3		-9.29046e-09
  1.4000		1.04998e-03		0e-3		-9.35996e-09
  1.6000		1.06214e-03		0e-3		-9.29320e-09
  1.8000		1.07323e-03		0e-3		-9.28843e-09
  2.0000		1.08314e-03		0e-3		-9.29368e-09
  2.2000		1.09376e-03		0e-3		-9.29189e-09
  2.4000		1.11481e-03		0e-3		-9.31299e-09
  2.6000		1.16760e-03		0e-3		-9.28664e-09
  2.8000		1.24756e-03		0e-3		-9.30583e-09
  3.0000		1.33256e-03		0e-3		-9.28760e-09
  3.2000		1.41411e-03		0e-3		-9.06408e-09
  3.4000		1.49015e-03		0e-3		-9.29344e-09
  3.6000		1.56059e-03		0e-3		-9.30607e-09
  3.8000		1.62587e-03		0e-3		-9.23467e-09
  4.0000		1.68693e-03		0e-3		-9.26673e-09
  4.2000		1.74475e-03		0e-3		-9.25338e-09
  4.4000		1.79961e-03		0e-3		-9.26828e-09
  4.6000		1.85305e-03		0e-3		-9.37307e-09
  4.8000		1.90539e-03		0e-3		-9.30715e-09
  5.0000		1.95769e-03		0e-3		-9.25052e-09
END_DB

BEGIN_DB
 ICCAP_VAR vb	1.0000
 ICCAP_VAR vg	3.0000
 ICCAP_VAR ve	0
 ICCAP_VAR vs	0

 #vd              id              ib              ig
  0.0000		-3.00119e-07		0e-3		-8.89385e-09
  0.2000		4.46510e-04		0e-3		-9.28175e-09
  0.4000		7.91180e-04		0e-3		-9.25028e-09
  0.6000		1.03459e-03		0e-3		-9.25958e-09
  0.8000		1.18510e-03		0e-3		-9.24766e-09
  1.0000		1.26315e-03		0e-3		-9.28175e-09
  1.2000		1.30224e-03		0e-3		-9.26638e-09
  1.4000		1.32552e-03		0e-3		-9.28402e-09
  1.6000		1.34301e-03		0e-3		-9.29308e-09
  1.8000		1.35691e-03		0e-3		-9.29225e-09
  2.0000		1.36954e-03		0e-3		-9.30715e-09
  2.2000		1.38096e-03		0e-3		-9.29022e-09
  2.4000		1.39618e-03		0e-3		-9.23526e-09
  2.6000		1.43411e-03		0e-3		-9.22525e-09
  2.8000		1.50946e-03		0e-3		-9.24969e-09
  3.0000		1.60142e-03		0e-3		-9.23467e-09
  3.2000		1.69231e-03		0e-3		-9.30262e-09
  3.4000		1.77794e-03		0e-3		-9.27877e-09
  3.6000		1.85726e-03		0e-3		-9.25159e-09
