! VERSION = 6.00
BEGIN_HEADER
 ICCAP_INPUTS
  vg         V  G GROUND SMU2 1E-005 LIN        1    -1          5          121   0.05       
  vb         V  B GROUND SMU4 0.01 LIN        2    1          1         1    1        
  vd         V  D GROUND SMU1 0.1 LIN        3    0.05       5          6    0.99      
  vs         V  S GROUND SMU3 0.1 CON        0
  ve         V  E GROUND SMU5 0.1 CON        0
 ICCAP_OUTPUTS
  id         I  D GROUND SMU1 B
  ib         I  D GROUND SMU4 B
  ig         I  D GROUND SMU2 B
END_HEADER


BEGIN_DB
 ICCAP_VAR vd	0.0500
 ICCAP_VAR vb	1.0000
 ICCAP_VAR ve	0
 ICCAP_VAR vs	0

 #vg              id              ig              ib
  -1.0000		-2.02894e-10		-9.24683e-09		0e-3
  -0.9500		-2.16246e-10		-9.24039e-09		0e-3
  -0.9000		-2.19822e-10		-9.18150e-09		0e-3
  -0.8500		-1.67012e-10		-9.20641e-09		0e-3
  -0.8000		-1.78933e-10		-9.26042e-09		0e-3
  -0.7500		-1.35303e-10		-9.22549e-09		0e-3
  -0.7000		-1.45316e-10		-9.29475e-09		0e-3
  -0.6500		-2.12550e-10		-9.22668e-09		0e-3
  -0.6000		-1.63555e-10		-9.18901e-09		0e-3
  -0.5500		-2.31266e-10		-9.20439e-09		0e-3
  -0.5000		-2.42829e-10		-9.22596e-09		0e-3
  -0.4500		-1.91927e-10		-9.22608e-09		0e-3
  -0.4000		-2.17199e-10		-9.26518e-09		0e-3
  -0.3500		-1.70588e-10		-9.24885e-09		0e-3
  -0.3000		-1.27673e-10		-9.25040e-09		0e-3
  -0.2500		-1.58548e-10		-9.24730e-09		0e-3
  -0.2000		-1.30296e-10		-9.23192e-09		0e-3
  -0.1500		-1.58548e-10		-9.24444e-09		0e-3
  -0.1000		-9.51290e-11		-9.17411e-09		0e-3
  -0.0500		-5.24521e-12		-9.20391e-09		0e-3
  0.0000		2.05040e-11		-9.19664e-09		0e-3
  0.0500		1.56760e-10		-9.24444e-09		0e-3
  0.1000		2.72989e-10		-9.28235e-09		0e-3
  0.1500		4.64916e-10		-9.23347e-09		0e-3
  0.2000		6.54340e-10		-9.19235e-09		0e-3
  0.2500		8.77738e-10		-9.23002e-09		0e-3
  0.3000		1.19019e-09		-9.19449e-09		0e-3
  0.3500		1.47176e-09		-9.21082e-09		0e-3
  0.4000		1.94418e-09		-9.19318e-09		0e-3
  0.4500		2.61343e-09		-9.19521e-09		0e-3
  0.5000		3.87871e-09		-9.19545e-09		0e-3
  0.5500		6.10852e-09		-9.23586e-09		0e-3
  0.6000		9.18484e-09		-9.26995e-09		0e-3
  0.6500		1.28766e-08		-9.26280e-09		0e-3
  0.7000		1.75649e-08		-9.22787e-09		0e-3
  0.7500		2.31549e-08		-9.22370e-09		0e-3
  0.8000		3.04449e-08		-9.20045e-09		0e-3
  0.8500		3.89568e-08		-9.22108e-09		0e-3
  0.9000		5.13661e-08		-9.20785e-09		0e-3
  0.9500		6.91593e-08		-9.24110e-09		0e-3
  1.0000		9.95386e-08		-9.23801e-09		0e-3
  1.0500		1.54229e-07		-9.19342e-09		0e-3
  1.1000		2.63081e-07		-9.22644e-09		0e-3
  1.1500		4.80407e-07		-9.21428e-09		0e-3
  1.2000		8.96788e-07		-9.24575e-09		0e-3
  1.2500		1.63290e-06		-9.21941e-09		0e-3
  1.3000		2.80269e-06		-9.17208e-09		0e-3
  1.3500		4.48629e-06		-9.19485e-09		0e-3
  1.4000		6.67083e-06		-9.19175e-09		0e-3
  1.4500		9.33898e-06		-9.21404e-09		0e-3
  1.5000		1.23814e-05		-9.21237e-09		0e-3
  1.5500		1.57245e-05		-9.22132e-09		0e-3
  1.6000		1.92759e-05		-9.25660e-09		0e-3
  1.6500		2.29836e-05		-9.23634e-09		0e-3
  1.7000		2.67844e-05		-9.25362e-09		0e-3
  1.7500		3.06634e-05		-9.24313e-09		0e-3
  1.8000		3.45634e-05		-9.20153e-09		0e-3
  1.8500		3.84824e-05		-9.21869e-09		0e-3
  1.9000		4.24136e-05		-9.25255e-09		0e-3
  1.9500		4.63256e-05		-9.26650e-09		0e-3
  2.0000		4.98652e-05		-9.27806e-09		0e-3
  2.0500		5.36919e-05		-9.25195e-09		0e-3
  2.1000		5.75781e-05		-9.27937e-09		0e-3
  2.1500		6.12974e-05		-9.26816e-09		0e-3
  2.2000		6.51121e-05		-9.24146e-09		0e-3
  2.2500		6.87599e-05		-9.22322e-09		0e-3
  2.3000		7.24435e-05		-9.22072e-09		0e-3
  2.3500		7.61509e-05		-9.23824e-09		0e-3
  2.4000		7.97391e-05		-9.24683e-09		0e-3
  2.4500		8.34107e-05		-9.20498e-09		0e-3
  2.5000		8.67963e-05		-9.25636e-09		0e-3
  2.5500		9.03845e-05		-9.26006e-09		0e-3
  2.6000		9.37462e-05		-9.22966e-09		0e-3
  2.6500		9.72390e-05		-9.24110e-09		0e-3
  2.7000		1.00625e-04		-9.22883e-09		0e-3
  2.7500		1.03879e-04		-9.23622e-09		0e-3
  2.8000		1.07229e-04		-9.26101e-09		0e-3
  2.8500		1.10435e-04		-9.25434e-09		0e-3
  2.9000		1.13714e-04		-9.26149e-09		0e-3
  2.9500		1.16777e-04		-9.24730e-09		0e-3
  3.0000		1.20044e-04		-9.25589e-09		0e-3
  3.0500		1.23179e-04		-9.23192e-09		0e-3
  3.1000		1.26183e-04		-9.20022e-09		0e-3
  3.1500		1.29259e-04		-9.19604e-09		0e-3
  3.2000		1.32155e-04		-9.16767e-09		0e-3
  3.2500		1.35183e-04		-9.22620e-09		0e-3
  3.3000		1.38128e-04		-9.25159e-09		0e-3
  3.3500		1.41060e-04		-9.21559e-09		0e-3
  3.4000		1.43874e-04		-9.23979e-09		0e-3
  3.4500		1.46782e-04		-9.23169e-09		0e-3
  3.5000		1.49632e-04		-9.22215e-09		0e-3
  3.5500		1.52457e-04		-9.13906e-09		0e-3
  3.6000		1.55246e-04		-9.19092e-09		0e-3
  3.6500		1.57940e-04		-9.23848e-09		0e-3
  3.7000		1.60623e-04		-9.19342e-09		0e-3
  3.7500		1.63257e-04		-9.21428e-09		0e-3
  3.8000		1.65927e-04		-9.24957e-09		0e-3
  3.8500		1.68586e-04		-9.24122e-09		0e-3
  3.9000		1.71173e-04		-9.22370e-09		0e-3
  3.9500		1.73771e-04		-9.19569e-09		0e-3
  4.0000		1.76299e-04		-9.24718e-09		0e-3
  4.0500		1.78766e-04		-9.24885e-09		0e-3
  4.1000		1.81329e-04		-9.21500e-09		0e-3
  4.1500		1.83928e-04		-9.22406e-09		0e-3
  4.2000		1.86336e-04		-9.21154e-09		0e-3
  4.2500		1.88696e-04		-9.25291e-09		0e-3
  4.3000		1.91188e-04		-9.24230e-09		0e-3
  4.3500		1.93572e-04		-9.19449e-09		0e-3
  4.4000		1.95885e-04		-9.17614e-09		0e-3
  4.4500		1.98233e-04		-9.18996e-09		0e-3
  4.5000		2.00582e-04		-9.21655e-09		0e-3
  4.5500		2.02894e-04		-9.20761e-09		0e-3
  4.6000		2.05255e-04		-9.22155e-09		0e-3
  4.6500		2.07484e-04		-9.22060e-09		0e-3
  4.7000		2.09677e-04		-9.21726e-09		0e-3
  4.7500		2.11930e-04		-9.18865e-09		0e-3
  4.8000		2.14148e-04		-9.24659e-09		0e-3
  4.8500		2.16293e-04		-9.20260e-09		0e-3
  4.9000		2.18463e-04		-9.16886e-09		0e-3
  4.9500		2.20585e-04		-9.17256e-09		0e-3
  5.0000		2.22814e-04		-9.11677e-09		0e-3
END_DB

BEGIN_DB
 ICCAP_VAR vd	1.0400
 ICCAP_VAR vb	1.0000
 ICCAP_VAR ve	0
 ICCAP_VAR vs	0

 #vg              id              ig              ib
  -1.0000		-2.49147e-11		-9.29344e-09		0e-3
  -0.9500		-5.92470e-11		-9.21643e-09		0e-3
  -0.9000		-6.22273e-11		-9.24969e-09		0e-3
  -0.8500		-6.50883e-11		-9.25338e-09		0e-3
  -0.8000		-8.64267e-11		-9.22453e-09		0e-3
  -0.7500		-1.08242e-10		-9.23884e-09		0e-3
  -0.7000		-9.19104e-11		-9.18770e-09		0e-3
  -0.6500		-1.30415e-10		-9.20427e-09		0e-3
  -0.6000		-1.22309e-10		-9.19116e-09		0e-3
  -0.5500		-9.23872e-11		-9.21190e-09		0e-3
  -0.5000		-9.57251e-11		-9.22453e-09		0e-3
  -0.4500		-9.66787e-11		-9.19533e-09		0e-3
  -0.4000		-5.19753e-11		-9.22000e-09		0e-3
  -0.3500		-2.89679e-11		-9.22847e-09		0e-3
  -0.3000		-3.95775e-11		-9.19402e-09		0e-3
  -0.2500		-3.93391e-11		-9.19723e-09		0e-3
  -0.2000		6.04391e-11		-9.16171e-09		0e-3
  -0.1500		1.26839e-10		-9.18329e-09		0e-3
  -0.1000		2.36630e-10		-9.22847e-09		0e-3
  -0.0500		4.17113e-10		-9.24671e-09		0e-3
  0.0000		6.92368e-10		-9.22132e-09		0e-3
  0.0500		1.06299e-09		-9.23443e-09		0e-3
  0.1000		1.49810e-09		-9.21035e-09		0e-3
  0.1500		2.01190e-09		-9.22048e-09		0e-3
  0.2000		2.68567e-09		-9.18043e-09		0e-3
  0.2500		3.58951e-09		-9.20260e-09		0e-3
  0.3000		4.77445e-09		-9.22918e-09		0e-3
  0.3500		6.42335e-09		-9.16266e-09		0e-3
  0.4000		8.22735e-09		-9.36234e-09		0e-3
  0.4500		1.08542e-08		-9.28378e-09		0e-3
  0.5000		1.46723e-08		-9.18424e-09		0e-3
  0.5500		2.06990e-08		-9.22442e-09		0e-3
  0.6000		2.95000e-08		-9.20987e-09		0e-3
  0.6500		4.16808e-08		-9.18567e-09		0e-3
  0.7000		5.91838e-08		-9.23026e-09		0e-3
  0.7500		8.34727e-08		-9.24027e-09		0e-3
  0.8000		1.13399e-07		-9.23407e-09		0e-3
  0.8500		1.51544e-07		-9.30846e-09		0e-3
  0.9000		2.01627e-07		-9.21857e-09		0e-3
  0.9500		2.73546e-07		-9.21202e-09		0e-3
  1.0000		3.86345e-07		-9.20713e-09		0e-3
  1.0500		5.52154e-07		-9.10938e-09		0e-3
  1.1000		8.53491e-07		-9.26507e-09		0e-3
  1.1500		1.38533e-06		-9.18329e-09		0e-3
  1.2000		2.34673e-06		-9.21380e-09		0e-3
  1.2500		3.99746e-06		-9.17077e-09		0e-3
  1.3000		6.61349e-06		-9.21559e-09		0e-3
  1.3500		1.05090e-05		-9.20498e-09		0e-3
  1.4000		1.59470e-05		-9.20081e-09		0e-3
  1.4500		2.31895e-05		-9.27377e-09		0e-3
  1.5000		3.23437e-05		-9.24110e-09		0e-3
  1.5500		4.35741e-05		-9.23443e-09		0e-3
  1.6000		5.67317e-05		-9.24087e-09		0e-3
  1.6500		7.22647e-05		-9.25183e-09		0e-3
  1.7000		9.00984e-05		-9.23026e-09		0e-3
  1.7500		1.10257e-04		-9.25088e-09		0e-3
  1.8000		1.32751e-04		-9.22704e-09		0e-3
  1.8500		1.57464e-04		-9.26447e-09		0e-3
  1.9000		1.84417e-04		-9.26352e-09		0e-3
  1.9500		2.13563e-04		-9.27031e-09		0e-3
  2.0000		2.44963e-04		-9.27210e-09		0e-3
  2.0500		2.78628e-04		-9.21595e-09		0e-3
  2.1000		3.14486e-04		-9.19640e-09		0e-3
  2.1500		3.52359e-04		-9.21559e-09		0e-3
  2.2000		3.92520e-04		-9.21845e-09		0e-3
  2.2500		4.34589e-04		-9.25350e-09		0e-3
  2.3000		4.78494e-04		-9.23657e-09		0e-3
  2.3500		5.24688e-04		-9.21142e-09		0e-3
  2.4000		5.73242e-04		-9.17339e-09		0e-3
  2.4500		6.23202e-04		-9.18901e-09		0e-3
  2.5000		6.75142e-04		-9.08351e-09		0e-3
  2.5500		7.28810e-04		-9.21941e-09		0e-3
  2.6000		7.84111e-04		-9.24075e-09		0e-3
  2.6500		8.41355e-04		-9.24540e-09		0e-3
  2.7000		8.99541e-04		-9.25171e-09		0e-3
  2.7500		9.59003e-04		-9.25529e-09		0e-3
  2.8000		1.02010e-03		-9.18686e-09		0e-3
  2.8500		1.08207e-03		-9.23455e-09		0e-3
  2.9000		1.14551e-03		-9.19163e-09		0e-3
  2.9500		1.20972e-03		-9.22275e-09		0e-3
  3.0000		1.27518e-03		-9.20939e-09		0e-3
  3.0500		1.34118e-03		-9.25386e-09		0e-3
  3.1000		1.40704e-03		-9.20653e-09		0e-3
  3.1500		1.47378e-03		-9.23145e-09		0e-3
  3.2000		1.54037e-03		-9.22930e-09		0e-3
  3.2500		1.60673e-03		-9.19926e-09		0e-3
  3.3000		1.67381e-03		-9.16016e-09		0e-3
  3.3500		1.73974e-03		-9.19604e-09		0e-3
  3.4000		1.80559e-03		-9.17792e-09		0e-3
  3.4500		1.87205e-03		-9.21834e-09		0e-3
  3.5000		1.93733e-03		-9.24265e-09		0e-3
  3.5500		2.00256e-03		-9.26697e-09		0e-3
  3.6000		2.06746e-03		-9.20510e-09		0e-3
  3.6500		2.13168e-03		-9.36151e-09		0e-3
  3.7000		2.19494e-03		-9.19712e-09		0e-3
  3.7500		2.25773e-03		-9.18591e-09		0e-3
  3.8000		2.32009e-03		-9.21369e-09		0e-3
  3.8500		2.38245e-03		-9.20057e-09		0e-3
  3.9000		2.44457e-03		-9.22692e-09		0e-3
  3.9500		2.50443e-03		-9.21237e-09		0e-3
  4.0000		2.56566e-03		-9.23240e-09		0e-3
  4.0500		2.62524e-03		-9.22406e-09		0e-3
  4.1000		2.68468e-03		-9.24194e-09		0e-3
  4.1500		2.74265e-03		-9.19497e-09		0e-3
  4.2000		2.80033e-03		-9.17733e-09		0e-3
  4.2500		2.85836e-03		-9.26769e-09		0e-3
  4.3000		2.91543e-03		-9.23634e-09		0e-3
  4.3500		2.97165e-03		-9.21798e-09		0e-3
  4.4000		3.02744e-03		-9.22179e-09		0e-3
  4.4500		3.08245e-03		-9.21166e-09		0e-3
  4.5000		3.13690e-03		-9.21154e-09		0e-3
  4.5500		3.19072e-03		-9.21965e-09		0e-3
  4.6000		3.24433e-03		-9.19723e-09		0e-3
  4.6500		3.29701e-03		-9.16696e-09		0e-3
  4.7000		3.34979e-03		-9.19950e-09		0e-3
  4.7500		3.40148e-03		-9.19902e-09		0e-3
  4.8000		3.45272e-03		-9.19557e-09		0e-3
  4.8500		3.50366e-03		-9.22525e-09		0e-3
  4.9000		3.55378e-03		-9.19199e-09		0e-3
  4.9500		3.60332e-03		-9.18400e-09		0e-3
  5.0000		3.65227e-03		-9.17935e-09		0e-3
END_DB

BEGIN_DB
 ICCAP_VAR vd	2.0300
 ICCAP_VAR vb	1.0000
 ICCAP_VAR ve	0
 ICCAP_VAR vs	0

 #vg              id              ig              ib
  -1.0000		-2.98023e-12		-9.26793e-09		0e-3
  -0.9500		-4.97103e-11		-9.20343e-09		0e-3
  -0.9000		-1.51396e-11		-9.21738e-09		0e-3
  -0.8500		-2.92063e-11		-9.23192e-09		0e-3
  -0.8000		-3.33786e-12		-9.28056e-09		0e-3
  -0.7500		-3.17097e-11		-9.24337e-09		0e-3
  -0.7000		-1.50204e-11		-9.23908e-09		0e-3
  -0.6500		-2.62260e-11		-9.21535e-09		0e-3
  -0.6000		-8.76188e-11		-9.23204e-09		0e-3
  -0.5500		-6.97374e-11		-9.21428e-09		0e-3
  -0.5000		-1.53780e-11		-9.24504e-09		0e-3
  -0.4500		-2.55108e-11		-9.28843e-09		0e-3
  -0.4000		3.03984e-11		-9.29463e-09		0e-3
  -0.3500		3.03984e-11		-9.21881e-09		0e-3
  -0.3000		9.15527e-11		-9.20987e-09		0e-3
  -0.2500		7.62939e-11		-9.25231e-09		0e-3
  -0.2000		1.61648e-10		-9.22024e-09		0e-3
  -0.1500		2.38419e-10		-9.22918e-09		0e-3
  -0.1000		3.98636e-10		-9.19032e-09		0e-3
  -0.0500		7.06196e-10		-9.20522e-09		0e-3
  0.0000		1.01578e-09		-9.21535e-09		0e-3
  0.0500		1.47331e-09		-9.25565e-09		0e-3
  0.1000		2.09045e-09		-9.26149e-09		0e-3
  0.1500		2.84636e-09		-9.24420e-09		0e-3
  0.2000		3.72732e-09		-9.21500e-09		0e-3
  0.2500		4.89044e-09		-9.20916e-09		0e-3
  0.3000		6.35898e-09		-9.17935e-09		0e-3
  0.3500		8.06201e-09		-9.22561e-09		0e-3
  0.4000		1.02307e-08		-9.24599e-09		0e-3
  0.4500		1.38593e-08		-9.24742e-09		0e-3
  0.5000		1.76282e-08		-9.27079e-09		0e-3
  0.5500		2.48486e-08		-9.27830e-09		0e-3
  0.6000		3.43065e-08		-9.22322e-09		0e-3
  0.6500		4.78568e-08		-9.26638e-09		0e-3
  0.7000		6.65104e-08		-9.21917e-09		0e-3
  0.7500		9.16946e-08		-9.18865e-09		0e-3
  0.8000		1.22867e-07		-9.20641e-09		0e-3
  0.8500		1.64325e-07		-9.22406e-09		0e-3
  0.9000		2.20261e-07		-9.21679e-09		0e-3
  0.9500		2.97810e-07		-9.22346e-09		0e-3
  1.0000		4.20358e-07		-9.24861e-09		0e-3
  1.0500		6.19543e-07		-9.22978e-09		0e-3
  1.1000		9.77898e-07		-9.24635e-09		0e-3
  1.1500		1.62482e-06		-9.24921e-09		0e-3
  1.2000		2.83158e-06		-9.20713e-09		0e-3
  1.2500		4.94132e-06		-9.20475e-09		0e-3
  1.3000		8.34477e-06		-9.16696e-09		0e-3
  1.3500		1.34085e-05		-9.21214e-09		0e-3
  1.4000		2.03842e-05		-9.16004e-09		0e-3
  1.4500		2.94151e-05		-9.22406e-09		0e-3
  1.5000		4.05108e-05		-9.25446e-09		0e-3
  1.5500		5.33700e-05		-9.24897e-09		0e-3
  1.6000		6.87480e-05		-9.21237e-09		0e-3
  1.6500		8.61406e-05		-9.17447e-09		0e-3
  1.7000		1.05762e-04		-9.18174e-09		0e-3
  1.7500		1.27399e-04		-9.21595e-09		0e-3
  1.8000		1.51110e-04		-9.23347e-09		0e-3
  1.8500		1.77062e-04		-9.24528e-09		0e-3
  1.9000		2.05076e-04		-9.25398e-09		0e-3
  1.9500		2.35629e-04		-9.24730e-09		0e-3
  2.0000		2.67911e-04		-9.22406e-09		0e-3
  2.0500		3.02947e-04		-9.23061e-09		0e-3
  2.1000		3.39842e-04		-9.17733e-09		0e-3
  2.1500		3.79205e-04		-9.19449e-09		0e-3
  2.2000		4.20594e-04		-9.21309e-09		0e-3
  2.2500		4.64499e-04		-9.21845e-09		0e-3
  2.3000		5.10418e-04		-9.20451e-09		0e-3
  2.3500		5.58889e-04		-9.27162e-09		0e-3
  2.4000		6.09100e-04		-9.19402e-09		0e-3
  2.4500		6.61790e-04		-9.25243e-09		0e-3
  2.5000		7.16436e-04		-9.22406e-09		0e-3
  2.5500		7.73358e-04		-9.19616e-09		0e-3
  2.6000		8.32105e-04		-9.19163e-09		0e-3
  2.6500		8.93140e-04		-9.23491e-09		0e-3
  2.7000		9.55904e-04		-9.21345e-09		0e-3
  2.7500		1.02059e-03		-9.24313e-09		0e-3
  2.8000		1.08716e-03		-9.31251e-09		0e-3
  2.8500		1.15554e-03		-9.30429e-09		0e-3
  2.9000		1.22567e-03		-9.22167e-09		0e-3
  2.9500		1.29755e-03		-9.21738e-09		0e-3
  3.0000		1.37154e-03		-9.21619e-09		0e-3
  3.0500		1.44684e-03		-9.20761e-09		0e-3
  3.1000		1.52310e-03		-9.12642e-09		0e-3
  3.1500		1.60209e-03		-9.23991e-09		0e-3
  3.2000		1.68227e-03		-9.30583e-09		0e-3
  3.2500		1.76390e-03		-9.22215e-09		0e-3
  3.3000		1.84693e-03		-9.24051e-09		0e-3
  3.3500		1.93098e-03		-9.23431e-09		0e-3
  3.4000		2.01660e-03		-9.24921e-09		0e-3
  3.4500		2.10383e-03		-9.24861e-09		0e-3
  3.5000		2.19229e-03		-9.24182e-09		0e-3
  3.5500		2.28179e-03		-9.25005e-09		0e-3
  3.6000		2.37240e-03		-9.24337e-09		0e-3
  3.6500		2.46502e-03		-9.25827e-09		0e-3
  3.7000		2.55924e-03		-9.23836e-09		0e-3
  3.7500		2.65381e-03		-9.24516e-09		0e-3
  3.8000		2.74932e-03		-9.21237e-09		0e-3
  3.8500		2.84548e-03		-9.25183e-09		0e-3
  3.9000		2.94232e-03		-9.23955e-09		0e-3
  3.9500		3.04018e-03		-9.24540e-09		0e-3
  4.0000		3.13878e-03		-9.22859e-09		0e-3
  4.0500		3.23907e-03		-9.23562e-09		0e-3
  4.1000		3.33976e-03		-9.23884e-09		0e-3
  4.1500		3.44148e-03		-9.31525e-09		0e-3
  4.2000		3.54303e-03		-9.25159e-09		0e-3
  4.2500		3.64521e-03		-9.27484e-09		0e-3
  4.3000		3.74712e-03		-9.21702e-09		0e-3
  4.3500		3.84889e-03		-9.19032e-09		0e-3
  4.4000		3.95181e-03		-9.25112e-09		0e-3
  4.4500		4.05370e-03		-9.30417e-09		0e-3
  4.5000		4.15677e-03		-9.25767e-09		0e-3
  4.5500		4.25864e-03		-9.27758e-09		0e-3
  4.6000		4.36184e-03		-9.27019e-09		0e-3
  4.6500		4.46405e-03		-9.26280e-09		0e-3
  4.7000		4.56711e-03		-9.24706e-09		0e-3
  4.7500		4.66830e-03		-9.23419e-09		0e-3
  4.8000		4.77034e-03		-9.25732e-09		0e-3
  4.8500		4.87138e-03		-9.23979e-09		0e-3
  4.9000		4.97258e-03		-9.28831e-09		0e-3
  4.9500		5.13458e-03		-9.30047e-09		0e-3
  5.0000		5.24068e-03		-9.27198e-09		0e-3
END_DB

BEGIN_DB
 ICCAP_VAR vd	3.0200
 ICCAP_VAR vb	1.0000
 ICCAP_VAR ve	0
 ICCAP_VAR vs	0

 #vg              id              ig              ib
  -1.0000		1.59144e-10		-9.34768e-09		0e-3
  -0.9500		9.31025e-11		-9.30679e-09		0e-3
  -0.9000		8.24928e-11		-9.28271e-09		0e-3
  -0.8500		4.22001e-11		-9.22191e-09		0e-3
  -0.8000		3.40939e-11		-9.23872e-09		0e-3
  -0.7500		6.93798e-11		-9.27615e-09		0e-3
  -0.7000		5.96046e-11		-9.29737e-09		0e-3
  -0.6500		5.16176e-11		-9.33707e-09		0e-3
  -0.6000		1.03831e-10		-9.32705e-09		0e-3
  -0.5500		9.73940e-11		-9.28688e-09		0e-3
  -0.5000		8.17776e-11		-9.28712e-09		0e-3
  -0.4500		5.86510e-11		-9.23264e-09		0e-3
  -0.4000		8.04663e-11		-9.24563e-09		0e-3
  -0.3500		7.56979e-11		-9.26161e-09		0e-3
  -0.3000		7.35521e-11		-9.25851e-09		0e-3
  -0.2500		1.88589e-10		-9.27830e-09		0e-3
  -0.2000		2.96116e-10		-9.30369e-09		0e-3
  -0.1500		4.44770e-10		-9.28128e-09		0e-3
  -0.1000		6.53744e-10		-9.26554e-09		0e-3
  -0.0500		9.02653e-10		-9.25469e-09		0e-3
  0.0000		1.24633e-09		-9.23443e-09		0e-3
  0.0500		1.78421e-09		-9.16016e-09		0e-3
  0.1000		2.61593e-09		-9.23479e-09		0e-3
  0.1500		3.27706e-09		-9.22084e-09		0e-3
  0.2000		4.46343e-09		-9.26709e-09		0e-3
  0.2500		5.91910e-09		-9.24492e-09		0e-3
  0.3000		7.71093e-09		-9.25398e-09		0e-3
  0.3500		9.70817e-09		-9.25314e-09		0e-3
  0.4000		1.17301e-08		-9.25600e-09		0e-3
  0.4500		1.53606e-08		-9.24659e-09		0e-3
  0.5000		2.02299e-08		-9.20522e-09		0e-3
  0.5500		2.80616e-08		-9.21881e-09		0e-3
  0.6000		3.82742e-08		-9.26507e-09		0e-3
  0.6500		5.32639e-08		-9.23634e-09		0e-3
  0.7000		7.38311e-08		-9.28128e-09		0e-3
  0.7500		9.95207e-08		-9.29284e-09		0e-3
  0.8000		1.32505e-07		-9.25350e-09		0e-3
  0.8500		1.83034e-07		-9.24468e-09		0e-3
  0.9000		2.46629e-07		-9.25481e-09		0e-3
  0.9500		3.59347e-07		-9.23276e-09		0e-3
  1.0000		6.10042e-07		-9.24766e-09		0e-3
  1.0500		1.42896e-06		-9.23812e-09		0e-3
  1.1000		4.31937e-06		-9.32324e-09		0e-3
  1.1500		1.03494e-05		-9.27818e-09		0e-3
  1.2000		1.94192e-05		-9.24933e-09		0e-3
  1.2500		3.12942e-05		-9.23431e-09		0e-3
  1.3000		4.57255e-05		-9.23646e-09		0e-3
  1.3500		6.23465e-05		-9.24480e-09		0e-3
  1.4000		8.15630e-05		-9.23741e-09		0e-3
  1.4500		1.03140e-04		-9.23359e-09		0e-3
  1.5000		1.26851e-04		-9.24242e-09		0e-3
  1.5500		1.52647e-04		-9.27436e-09		0e-3
  1.6000		1.80590e-04		-9.23228e-09		0e-3
  1.6500		2.10381e-04		-9.28032e-09		0e-3
  1.7000		2.42102e-04		-9.25076e-09		0e-3
  1.7500		2.75791e-04		-9.23669e-09		0e-3
  1.8000		3.11279e-04		-9.21929e-09		0e-3
  1.8500		3.48544e-04		-9.22048e-09		0e-3
  1.9000		3.87704e-04		-9.19390e-09		0e-3
  1.9500		4.28367e-04		-9.24909e-09		0e-3
  2.0000		4.70638e-04		-9.24420e-09		0e-3
  2.0500		5.14638e-04		-9.29964e-09		0e-3
  2.1000		5.60164e-04		-9.26578e-09		0e-3
  2.1500		6.07228e-04		-9.22084e-09		0e-3
  2.2000		6.55878e-04		-9.21738e-09		0e-3
  2.2500		7.05981e-04		-9.20117e-09		0e-3
  2.3000		7.57420e-04		-9.18102e-09		0e-3
  2.3500		8.10409e-04		-9.17304e-09		0e-3
  2.4000		8.64613e-04		-9.21679e-09		0e-3
  2.4500		9.19902e-04		-9.19962e-09		0e-3
  2.5000		9.77027e-04		-9.23479e-09		0e-3
  2.5500		1.03517e-03		-9.28915e-09		0e-3
  2.6000		1.09466e-03		-9.22000e-09		0e-3
  2.6500		1.15532e-03		-9.24993e-09		0e-3
  2.7000		1.21726e-03		-9.19402e-09		0e-3
  2.7500		1.28031e-03		-9.20785e-09		0e-3
  2.8000		1.34455e-03		-9.21702e-09		0e-3
  2.8500		1.41023e-03		-9.18627e-09		0e-3
  2.9000		1.47682e-03		-9.26912e-09		0e-3
  2.9500		1.54443e-03		-9.18519e-09		0e-3
  3.0000		1.61369e-03		-9.25791e-09		0e-3
  3.0500		1.68356e-03		-9.24325e-09		0e-3
  3.1000		1.75480e-03		-9.22275e-09		0e-3
