! VERSION = 6.00
BEGIN_HEADER
 ICCAP_INPUTS
  vg         V  G GROUND SMU2 1E-005 LIN	2	0	5	26	0.2
  vb         V  B GROUND SMU4 0.01 LIN	3	1         1         1    1        
  vd         V  D GROUND SMU1 0.1 LIN	1	0          5          26   0.2       
  vs         V  S GROUND SMU3 0.1 CON        0
  ve         V  E GROUND SMU5 0.1 CON        0
 ICCAP_OUTPUTS
  id         I  D GROUND SMU1 B
  ib         I  D GROUND SMU4 B
  ig         I  D GROUND SMU2 B
END_HEADER


BEGIN_DB
 ICCAP_VAR vb	1.0000
 ICCAP_VAR vg	0.0000
 ICCAP_VAR ve	0
 ICCAP_VAR vs	0

 #vd              id              ib              ig
  0.0000		-3.37005e-10		0e-3		-9.96554e-09
  0.2000		-1.12295e-10		0e-3		-1.01339e-08
  0.4000		-3.46899e-11		0e-3		-1.01140e-08
  0.6000		-2.49147e-11		0e-3		-1.01688e-08
  0.8000		2.67029e-11		0e-3		-1.01436e-08
  1.0000		8.09431e-11		0e-3		-1.01563e-08
  1.2000		1.20282e-10		0e-3		-1.01855e-08
  1.4000		1.46985e-10		0e-3		-1.01397e-08
  1.6000		1.52588e-10		0e-3		-1.01343e-08
  1.8000		1.44243e-10		0e-3		-1.01305e-08
  2.0000		1.66535e-10		0e-3		-1.00766e-08
  2.2000		2.00868e-10		0e-3		-1.01548e-08
  2.4000		2.13504e-10		0e-3		-1.01137e-08
  2.6000		2.93493e-10		0e-3		-1.01866e-08
  2.8000		3.67284e-10		0e-3		-1.01427e-08
  3.0000		3.92437e-10		0e-3		-1.01874e-08
  3.2000		4.32253e-10		0e-3		-1.02118e-08
  3.4000		4.44174e-10		0e-3		-1.01092e-08
  3.6000		4.79698e-10		0e-3		-1.00740e-08
  3.8000		5.16176e-10		0e-3		-1.01269e-08
  4.0000		5.27382e-10		0e-3		-1.01266e-08
  4.2000		6.35862e-10		0e-3		-1.01227e-08
  4.4000		7.09414e-10		0e-3		-1.01537e-08
  4.6000		7.88569e-10		0e-3		-1.01761e-08
  4.8000		8.70228e-10		0e-3		-1.01736e-08
  5.0000		9.76801e-10		0e-3		-1.00969e-08
END_DB

BEGIN_DB
 ICCAP_VAR vb	1.0000
 ICCAP_VAR vg	0.2000
 ICCAP_VAR ve	0
 ICCAP_VAR vs	0

 #vd              id              ib              ig
  0.0000		-3.99947e-10		0e-3		-1.00937e-08
  0.2000		-1.60694e-10		0e-3		-1.00403e-08
  0.4000		-9.44138e-11		0e-3		-1.00764e-08
  0.6000		-4.81606e-11		0e-3		-1.00782e-08
  0.8000		5.00679e-12		0e-3		-1.01378e-08
  1.0000		6.58035e-11		0e-3		-1.01266e-08
  1.2000		9.34601e-11		0e-3		-1.01596e-08
  1.4000		1.19448e-10		0e-3		-1.01227e-08
  1.6000		1.45197e-10		0e-3		-1.01451e-08
  1.8000		1.70469e-10		0e-3		-1.01012e-08
  2.0000		1.67251e-10		0e-3		-1.00660e-08
  2.2000		1.69396e-10		0e-3		-1.00778e-08
  2.4000		2.21491e-10		0e-3		-1.00734e-08
  2.6000		2.94685e-10		0e-3		-1.01358e-08
  2.8000		3.57270e-10		0e-3		-1.01619e-08
  3.0000		3.94225e-10		0e-3		-1.01236e-08
  3.2000		4.35710e-10		0e-3		-1.01067e-08
  3.4000		4.49657e-10		0e-3		-1.00846e-08
  3.6000		4.78029e-10		0e-3		-1.00962e-08
  3.8000		5.01633e-10		0e-3		-1.00460e-08
  4.0000		5.42879e-10		0e-3		-1.01094e-08
  4.2000		6.05345e-10		0e-3		-1.01149e-08
  4.4000		6.82831e-10		0e-3		-1.01240e-08
  4.6000		7.34568e-10		0e-3		-1.01589e-08
  4.8000		8.71181e-10		0e-3		-1.01453e-08
  5.0000		9.52125e-10		0e-3		-1.01452e-08
END_DB

BEGIN_DB
 ICCAP_VAR vb	1.0000
 ICCAP_VAR vg	0.4000
 ICCAP_VAR ve	0
 ICCAP_VAR vs	0

 #vd              id              ib              ig
  0.0000		-3.88384e-10		0e-3		-9.95970e-09
  0.2000		-9.62019e-11		0e-3		-1.01149e-08
  0.4000		-2.67029e-11		0e-3		-1.01429e-08
  0.6000		1.96695e-11		0e-3		-1.01396e-08
  0.8000		9.07183e-11		0e-3		-1.01099e-08
  1.0000		8.95262e-11		0e-3		-1.01180e-08
  1.2000		9.16719e-11		0e-3		-1.00402e-08
  1.4000		1.13606e-10		0e-3		-1.00199e-08
  1.6000		1.38879e-10		0e-3		-1.00805e-08
  1.8000		1.70231e-10		0e-3		-1.00813e-08
  2.0000		2.25306e-10		0e-3		-1.00734e-08
  2.2000		2.72989e-10		0e-3		-1.01644e-08
  2.4000		3.17097e-10		0e-3		-1.01452e-08
  2.6000		3.20077e-10		0e-3		-1.01038e-08
  2.8000		3.47853e-10		0e-3		-1.00974e-08
  3.0000		4.32014e-10		0e-3		-1.01167e-08
  3.2000		3.95656e-10		0e-3		-1.00868e-08
  3.4000		4.53234e-10		0e-3		-1.01265e-08
  3.6000		5.10097e-10		0e-3		-1.01656e-08
  3.8000		5.74708e-10		0e-3		-1.01492e-08
  4.0000		6.25491e-10		0e-3		-1.01964e-08
  4.2000		6.88434e-10		0e-3		-1.01440e-08
  4.4000		7.33376e-10		0e-3		-1.01476e-08
  4.6000		7.74384e-10		0e-3		-1.00862e-08
  4.8000		8.11696e-10		0e-3		-1.01106e-08
  5.0000		8.67844e-10		0e-3		-1.01370e-08
END_DB

BEGIN_DB
 ICCAP_VAR vb	1.0000
 ICCAP_VAR vg	0.6000
 ICCAP_VAR ve	0
 ICCAP_VAR vs	0

 #vd              id              ib              ig
  0.0000		-3.69310e-10		0e-3		-1.01341e-08
  0.2000		4.68016e-10		0e-3		-1.00940e-08
  0.4000		5.63860e-10		0e-3		-1.00859e-08
  0.6000		5.67555e-10		0e-3		-1.00749e-08
  0.8000		6.43253e-10		0e-3		-1.00746e-08
  1.0000		6.76155e-10		0e-3		-1.01337e-08
  1.2000		7.43985e-10		0e-3		-1.01212e-08
  1.4000		8.11338e-10		0e-3		-1.01191e-08
  1.6000		8.65936e-10		0e-3		-1.01681e-08
  1.8000		9.40323e-10		0e-3		-1.01312e-08
  2.0000		9.92775e-10		0e-3		-1.01111e-08
  2.2000		1.04690e-09		0e-3		-1.01142e-08
  2.4000		1.10507e-09		0e-3		-1.00812e-08
  2.6000		1.15478e-09		0e-3		-1.00669e-08
  2.8000		1.22321e-09		0e-3		-1.01241e-08
  3.0000		1.29426e-09		0e-3		-1.01112e-08
  3.2000		1.37413e-09		0e-3		-1.00807e-08
  3.4000		1.48880e-09		0e-3		-1.01358e-08
  3.6000		1.58668e-09		0e-3		-1.01597e-08
  3.8000		1.66380e-09		0e-3		-1.01618e-08
  4.0000		1.74534e-09		0e-3		-1.00757e-08
  4.2000		1.81520e-09		0e-3		-1.00766e-08
  4.4000		1.94693e-09		0e-3		-1.01219e-08
  4.6000		2.04492e-09		0e-3		-1.00905e-08
  4.8000		2.24245e-09		0e-3		-1.01391e-08
  5.0000		2.42245e-09		0e-3		-1.01771e-08
END_DB

BEGIN_DB
 ICCAP_VAR vb	1.0000
 ICCAP_VAR vg	0.8000
 ICCAP_VAR ve	0
 ICCAP_VAR vs	0

 #vd              id              ib              ig
  0.0000		-4.59552e-10		0e-3		-1.00358e-08
  0.2000		1.34377e-08		0e-3		-1.00296e-08
  0.4000		1.45253e-08		0e-3		-1.01036e-08
  0.6000		1.52277e-08		0e-3		-1.01113e-08
  0.8000		1.58378e-08		0e-3		-1.01854e-08
  1.0000		1.64468e-08		0e-3		-1.02190e-08
  1.2000		1.69910e-08		0e-3		-1.02071e-08
  1.4000		1.75530e-08		0e-3		-1.01615e-08
  1.6000		1.80879e-08		0e-3		-1.01489e-08
  1.8000		1.86217e-08		0e-3		-1.01212e-08
  2.0000		1.92089e-08		0e-3		-1.01738e-08
  2.2000		1.98288e-08		0e-3		-1.01911e-08
  2.4000		2.04822e-08		0e-3		-1.01926e-08
  2.6000		2.12599e-08		0e-3		-1.01987e-08
  2.8000		2.20550e-08		0e-3		-1.01970e-08
  3.0000		2.28543e-08		0e-3		-1.01407e-08
  3.2000		2.39084e-08		0e-3		-1.01490e-08
  3.4000		2.52535e-08		0e-3		-1.01280e-08
  3.6000		2.69178e-08		0e-3		-1.01498e-08
  3.8000		2.92344e-08		0e-3		-1.01907e-08
  4.0000		3.24012e-08		0e-3		-1.02152e-08
  4.2000		3.68009e-08		0e-3		-1.02429e-08
  4.4000		4.34618e-08		0e-3		-1.02150e-08
  4.6000		5.41270e-08		0e-3		-1.02241e-08
  4.8000		7.23624e-08		0e-3		-1.01516e-08
  5.0000		1.07683e-07		0e-3		-1.01246e-08
END_DB

BEGIN_DB
 ICCAP_VAR vb	1.0000
 ICCAP_VAR vg	1.0000
 ICCAP_VAR ve	0
 ICCAP_VAR vs	0

 #vd              id              ib              ig
  0.0000		-1.06835e-09		0e-3		-1.00425e-08
  0.2000		3.74792e-07		0e-3		-1.01165e-08
  0.4000		4.00132e-07		0e-3		-1.01056e-08
  0.6000		4.12848e-07		0e-3		-1.01033e-08
  0.8000		4.23278e-07		0e-3		-1.00827e-08
  1.0000		4.33842e-07		0e-3		-1.00907e-08
  1.2000		4.44090e-07		0e-3		-1.01318e-08
  1.4000		4.52955e-07		0e-3		-1.01202e-08
  1.6000		4.62602e-07		0e-3		-1.01341e-08
  1.8000		4.73425e-07		0e-3		-1.01497e-08
  2.0000		4.84695e-07		0e-3		-1.01161e-08
  2.2000		5.02157e-07		0e-3		-1.01281e-08
  2.4000		5.21934e-07		0e-3		-1.00899e-08
  2.6000		5.56719e-07		0e-3		-1.00868e-08
  2.8000		6.14190e-07		0e-3		-1.00894e-08
  3.0000		7.21252e-07		0e-3		-1.00869e-08
  3.2000		9.30810e-07		0e-3		-1.00943e-08
  3.4000		1.39030e-06		0e-3		-1.01070e-08
  3.6000		2.41057e-06		0e-3		-1.01815e-08
  3.8000		4.31727e-06		0e-3		-1.01354e-08
  4.0000		7.19214e-06		0e-3		-1.01298e-08
  4.2000		1.09185e-05		0e-3		-1.00806e-08
  4.4000		1.53526e-05		0e-3		-1.00753e-08
  4.6000		2.03539e-05		0e-3		-1.00955e-08
  4.8000		2.57763e-05		0e-3		-1.01069e-08
  5.0000		3.15609e-05		0e-3		-1.01271e-08
END_DB

BEGIN_DB
 ICCAP_VAR vb	1.0000
 ICCAP_VAR vg	1.2000
 ICCAP_VAR ve	0
 ICCAP_VAR vs	0

 #vd              id              ib              ig
  0.0000		-3.08120e-09		0e-3		-1.01774e-08
  0.2000		5.74332e-06		0e-3		-1.00749e-08
  0.4000		6.21939e-06		0e-3		-1.00688e-08
  0.6000		6.34384e-06		0e-3		-1.01136e-08
  0.8000		6.45220e-06		0e-3		-1.01075e-08
  1.0000		6.54173e-06		0e-3		-1.01628e-08
  1.2000		6.62720e-06		0e-3		-1.01366e-08
  1.4000		6.71184e-06		0e-3		-1.00727e-08
  1.6000		6.79767e-06		0e-3		-1.00619e-08
  1.8000		6.90246e-06		0e-3		-1.00900e-08
  2.0000		7.06995e-06		0e-3		-1.01056e-08
  2.2000		7.45118e-06		0e-3		-1.01465e-08
  2.4000		8.28815e-06		0e-3		-1.01430e-08
  2.6000		1.01131e-05		0e-3		-1.01670e-08
  2.8000		1.35729e-05		0e-3		-1.01335e-08
  3.0000		1.90201e-05		0e-3		-1.01193e-08
  3.2000		2.61656e-05		0e-3		-1.01047e-08
  3.4000		3.45306e-05		0e-3		-1.00623e-08
  3.6000		4.38305e-05		0e-3		-1.00741e-08
  3.8000		5.35250e-05		0e-3		-1.01128e-08
  4.0000		6.41227e-05		0e-3		-1.01131e-08
  4.2000		7.50661e-05		0e-3		-1.01577e-08
  4.4000		8.64029e-05		0e-3		-1.01547e-08
  4.6000		9.79304e-05		0e-3		-1.01360e-08
  4.8000		1.09720e-04		0e-3		-1.00954e-08
  5.0000		1.21665e-04		0e-3		-1.00914e-08
END_DB

BEGIN_DB
 ICCAP_VAR vb	1.0000
 ICCAP_VAR vg	1.4000
 ICCAP_VAR ve	0
 ICCAP_VAR vs	0

 #vd              id              ib              ig
  0.0000		-4.97460e-10		0e-3		-1.00706e-08
  0.2000		3.19589e-05		0e-3		-1.00201e-08
  0.4000		3.57126e-05		0e-3		-1.01347e-08
  0.6000		3.61540e-05		0e-3		-1.01373e-08
  0.8000		3.64634e-05		0e-3		-1.01520e-08
  1.0000		3.67787e-05		0e-3		-1.01312e-08
  1.2000		3.70252e-05		0e-3		-1.01082e-08
  1.4000		3.72682e-05		0e-3		-1.00746e-08
  1.6000		3.75196e-05		0e-3		-1.00979e-08
  1.8000		3.78644e-05		0e-3		-1.01295e-08
  2.0000		3.86713e-05		0e-3		-1.01528e-08
  2.2000		4.08059e-05		0e-3		-1.01147e-08
  2.4000		4.59223e-05		0e-3		-1.01637e-08
  2.6000		5.49912e-05		0e-3		-1.01906e-08
  2.8000		6.81758e-05		0e-3		-1.01249e-08
  3.0000		8.36611e-05		0e-3		-1.01079e-08
  3.2000		1.00303e-04		0e-3		-1.00960e-08
  3.4000		1.17409e-04		0e-3		-1.00775e-08
  3.6000		1.34933e-04		0e-3		-1.00952e-08
  3.8000		1.52576e-04		0e-3		-1.01321e-08
  4.0000		1.70386e-04		0e-3		-1.01320e-08
  4.2000		1.88255e-04		0e-3		-1.01254e-08
  4.4000		2.06196e-04		0e-3		-1.01848e-08
  4.6000		2.24268e-04		0e-3		-1.01347e-08
  4.8000		2.42531e-04		0e-3		-1.01440e-08
  5.0000		2.60913e-04		0e-3		-1.01053e-08
END_DB

BEGIN_DB
 ICCAP_VAR vb	1.0000
 ICCAP_VAR vg	1.6000
 ICCAP_VAR ve	0
 ICCAP_VAR vs	0

 #vd              id              ib              ig
  0.0000		6.10113e-09		0e-3		-1.00803e-08
  0.2000		8.87302e-05		0e-3		-1.01110e-08
  0.4000		1.04833e-04		0e-3		-1.01011e-08
  0.6000		1.06788e-04		0e-3		-1.01073e-08
  0.8000		1.07563e-04		0e-3		-1.01314e-08
  1.0000		1.08242e-04		0e-3		-1.01532e-08
  1.2000		1.08874e-04		0e-3		-1.01188e-08
  1.4000		1.09351e-04		0e-3		-1.01677e-08
  1.6000		1.09780e-04		0e-3		-1.01708e-08
  1.8000		1.10435e-04		0e-3		-1.00722e-08
  2.0000		1.11723e-04		0e-3		-1.01216e-08
  2.2000		1.15550e-04		0e-3		-1.00961e-08
  2.4000		1.25480e-04		0e-3		-1.01345e-08
  2.6000		1.43278e-04		0e-3		-1.00966e-08
  2.8000		1.66655e-04		0e-3		-1.02026e-08
  3.0000		1.92404e-04		0e-3		-1.01908e-08
  3.2000		2.18713e-04		0e-3		-1.01273e-08
  3.4000		2.45035e-04		0e-3		-1.00826e-08
  3.6000		4.77839e-04		0e-3		-1.01227e-08
  3.8000		5.11551e-04		0e-3		-1.02088e-08
  4.0000		5.44047e-04		0e-3		-1.02372e-08
  4.2000		5.75328e-04		0e-3		-1.02663e-08
  4.4000		6.05309e-04		0e-3		-1.02835e-08
  4.6000		6.35517e-04		0e-3		-1.03116e-08
  4.8000		6.65092e-04		0e-3		-1.02948e-08
  5.0000		6.94239e-04		0e-3		-1.03041e-08
END_DB

BEGIN_DB
 ICCAP_VAR vb	1.0000
 ICCAP_VAR vg	1.8000
 ICCAP_VAR ve	0
 ICCAP_VAR vs	0

 #vd              id              ib              ig
  0.0000		1.07796e-08		0e-3		-1.02020e-08
  0.2000		1.65248e-04		0e-3		-1.01025e-08
  0.4000		2.18618e-04		0e-3		-1.01091e-08
  0.6000		2.27630e-04		0e-3		-1.00971e-08
  0.8000		2.29144e-04		0e-3		-1.00454e-08
  1.0000		2.30324e-04		0e-3		-1.00657e-08
  1.2000		2.31266e-04		0e-3		-1.01358e-08
  1.4000		2.32065e-04		0e-3		-1.01051e-08
  1.6000		2.32744e-04		0e-3		-1.01491e-08
  1.8000		2.33519e-04		0e-3		-1.01154e-08
  2.0000		2.34759e-04		0e-3		-1.01371e-08
  2.2000		2.38621e-04		0e-3		-1.01252e-08
  2.4000		2.50220e-04		0e-3		-1.00625e-08
  2.6000		5.02300e-04		0e-3		-1.01233e-08
  2.8000		5.49579e-04		0e-3		-1.01347e-08
  3.0000		5.93388e-04		0e-3		-1.01801e-08
  3.2000		6.34551e-04		0e-3		-1.02004e-08
  3.4000		6.73556e-04		0e-3		-1.02760e-08
  3.6000		7.10976e-04		0e-3		-1.02655e-08
  3.8000		7.46858e-04		0e-3		-1.02582e-08
  4.0000		7.81262e-04		0e-3		-1.02290e-08
  4.2000		8.14247e-04		0e-3		-1.02413e-08
  4.4000		8.46148e-04		0e-3		-1.02841e-08
  4.6000		8.77249e-04		0e-3		-1.03115e-08
  4.8000		9.08065e-04		0e-3		-1.03995e-08
  5.0000		9.38690e-04		0e-3		-1.04091e-08
END_DB

BEGIN_DB
 ICCAP_VAR vb	1.0000
 ICCAP_VAR vg	2.0000
 ICCAP_VAR ve	0
 ICCAP_VAR vs	0

 #vd              id              ib              ig
  0.0000		3.01230e-08		0e-3		-9.66740e-09
  0.2000		2.48790e-04		0e-3		-1.00536e-08
  0.4000		3.66890e-04		0e-3		-1.00697e-08
  0.6000		3.97062e-04		0e-3		-1.01119e-08
  0.8000		4.01819e-04		0e-3		-1.02124e-08
  1.0000		3.99148e-04		0e-3		-1.01629e-08
  1.2000		3.99399e-04		0e-3		-1.00614e-08
  1.4000		4.02856e-04		0e-3		-1.01160e-08
  1.6000		4.20392e-04		0e-3		-1.01115e-08
  1.8000		4.71842e-04		0e-3		-1.01099e-08
  2.0000		5.39815e-04		0e-3		-1.01186e-08
  2.2000		6.06298e-04		0e-3		-1.01792e-08
  2.4000		6.68955e-04		0e-3		-1.02187e-08
  2.6000		7.27546e-04		0e-3		-1.02351e-08
  2.8000		7.82311e-04		0e-3		-1.02890e-08
  3.0000		8.33750e-04		0e-3		-1.02885e-08
  3.2000		8.82256e-04		0e-3		-1.02341e-08
  3.4000		9.28378e-04		0e-3		-1.02453e-08
  3.6000		9.72247e-04		0e-3		-1.02155e-08
  3.8000		1.01440e-03		0e-3		-1.02546e-08
  4.0000		1.05510e-03		0e-3		-1.02681e-08
  4.2000		1.09420e-03		0e-3		-1.03325e-08
  4.4000		1.13188e-03		0e-3		-1.03571e-08
  4.6000		1.16838e-03		0e-3		-1.03399e-08
  4.8000		1.20413e-03		0e-3		-1.03251e-08
  5.0000		1.23994e-03		0e-3		-1.03254e-08
END_DB

BEGIN_DB
 ICCAP_VAR vb	1.0000
 ICCAP_VAR vg	2.2000
 ICCAP_VAR ve	0
 ICCAP_VAR vs	0

 #vd              id              ib              ig
  0.0000		2.33861e-08		0e-3		-1.01025e-08
  0.2000		3.33190e-04		0e-3		-1.01149e-08
  0.4000		5.30875e-04		0e-3		-1.00938e-08
  0.6000		6.07717e-04		0e-3		-1.00704e-08
  0.8000		6.20973e-04		0e-3		-1.00564e-08
  1.0000		6.16455e-04		0e-3		-1.00598e-08
  1.2000		6.14548e-04		0e-3		-1.00067e-08
  1.4000		6.14429e-04		0e-3		-1.00636e-08
  1.6000		6.26707e-04		0e-3		-1.01075e-08
  1.8000		6.80244e-04		0e-3		-1.01190e-08
  2.0000		7.60281e-04		0e-3		-1.01322e-08
  2.2000		8.40139e-04		0e-3		-1.01826e-08
  2.4000		9.14514e-04		0e-3		-1.01484e-08
  2.6000		9.83667e-04		0e-3		-1.01649e-08
  2.8000		1.04826e-03		0e-3		-1.01395e-08
  3.0000		1.10947e-03		0e-3		-1.01771e-08
  3.2000		1.16639e-03		0e-3		-1.02285e-08
  3.4000		1.22018e-03		0e-3		-1.02569e-08
  3.6000		1.27158e-03		0e-3		-1.02726e-08
  3.8000		1.32104e-03		0e-3		-1.02862e-08
  4.0000		1.36925e-03		0e-3		-1.03023e-08
  4.2000		1.41654e-03		0e-3		-1.02872e-08
  4.4000		1.46291e-03		0e-3		-1.02793e-08
  4.6000		1.50799e-03		0e-3		-1.02913e-08
  4.8000		1.55246e-03		0e-3		-1.03508e-08
  5.0000		1.59670e-03		0e-3		-1.04184e-08
END_DB

BEGIN_DB
 ICCAP_VAR vb	1.0000
 ICCAP_VAR vg	2.4000
 ICCAP_VAR ve	0
 ICCAP_VAR vs	0

 #vd              id              ib              ig
  0.0000		-2.87225e-07		0e-3		-1.01336e-08
  0.2000		4.16529e-04		0e-3		-1.00392e-08
  0.4000		6.97899e-04		0e-3		-1.00873e-08
  0.6000		8.44002e-04		0e-3		-1.01318e-08
  0.8000		8.93700e-04		0e-3		-1.01227e-08
  1.0000		8.90219e-04		0e-3		-1.01372e-08
  1.2000		8.84271e-04		0e-3		-1.01194e-08
  1.4000		8.79967e-04		0e-3		-1.00765e-08
  1.6000		8.82125e-04		0e-3		-1.01603e-08
  1.8000		9.22930e-04		0e-3		-1.00949e-08
  2.0000		1.01043e-03		0e-3		-1.00991e-08
  2.2000		1.10500e-03		0e-3		-1.01631e-08
  2.4000		1.19309e-03		0e-3		-1.02223e-08
  2.6000		1.27422e-03		0e-3		-1.02201e-08
  2.8000		1.34974e-03		0e-3		-1.02272e-08
  3.0000		1.42044e-03		0e-3		-1.02447e-08
  3.2000		1.48650e-03		0e-3		-1.01885e-08
  3.4000		1.54879e-03		0e-3		-1.02533e-08
  3.6000		1.60805e-03		0e-3		-1.02831e-08
  3.8000		1.66535e-03		0e-3		-1.02719e-08
  4.0000		1.72169e-03		0e-3		-1.02854e-08
  4.2000		1.77778e-03		0e-3		-1.03551e-08
  4.4000		1.83400e-03		0e-3		-1.03379e-08
  4.6000		1.89010e-03		0e-3		-1.03829e-08
  4.8000		1.94571e-03		0e-3		-1.03430e-08
  5.0000		2.00113e-03		0e-3		-1.03575e-08
END_DB

BEGIN_DB
 ICCAP_VAR vb	1.0000
 ICCAP_VAR vg	2.6000
 ICCAP_VAR ve	0
 ICCAP_VAR vs	0

 #vd              id              ib              ig
  0.0000		-4.07814e-07		0e-3		-9.92441e-09
  0.2000		4.97770e-04		0e-3		-1.00734e-08
  0.4000		8.62467e-04		0e-3		-1.01070e-08
  0.6000		1.08812e-03		0e-3		-1.01095e-08
  0.8000		1.19319e-03		0e-3		-1.01295e-08
  1.0000		1.21663e-03		0e-3		-1.01439e-08
  1.2000		1.20804e-03		0e-3		-1.01032e-08
  1.4000		1.20112e-03		0e-3		-1.01386e-08
  1.6000		1.19561e-03		0e-3		-1.00995e-08
  1.8000		1.21195e-03		0e-3		-1.00957e-08
  2.0000		1.29168e-03		0e-3		-1.01825e-08
  2.2000		1.39990e-03		0e-3		-1.01718e-08
  2.4000		1.50348e-03		0e-3		-1.02299e-08
  2.6000		1.59830e-03		0e-3		-1.02564e-08
  2.8000		1.68576e-03		0e-3		-1.02726e-08
  3.0000		1.76725e-03		0e-3		-1.02317e-08
  3.2000		1.84337e-03		0e-3		-1.02178e-08
  3.4000		1.91453e-03		0e-3		-1.02296e-08
  3.6000		1.98191e-03		0e-3		-1.02082e-08
  3.8000		2.04721e-03		0e-3		-1.02010e-08
  4.0000		2.11186e-03		0e-3		-1.02738e-08
  4.2000		2.17692e-03		0e-3		-1.03129e-08
  4.4000		2.24319e-03		0e-3		-1.03627e-08
  4.6000		2.31026e-03		0e-3		-1.04222e-08
  4.8000		2.37834e-03		0e-3		-1.03338e-08
  5.0000		2.44682e-03		0e-3		-1.03669e-08
END_DB

BEGIN_DB
 ICCAP_VAR vb	1.0000
 ICCAP_VAR vg	2.8000
 ICCAP_VAR ve	0
 ICCAP_VAR vs	0

 #vd              id              ib              ig
  0.0000		-6.50649e-07		0e-3		-1.02075e-08
  0.2000		5.76854e-04		0e-3		-1.01137e-08
  0.4000		1.02348e-03		0e-3		-1.00448e-08
  0.6000		1.33146e-03		0e-3		-1.00461e-08
  0.8000		1.50894e-03		0e-3		-1.00825e-08
  1.0000		1.58409e-03		0e-3		-1.00348e-08
  1.2000		1.58569e-03		0e-3		-1.00981e-08
  1.4000		1.57561e-03		0e-3		-1.01292e-08
  1.6000		1.56662e-03		0e-3		-1.01281e-08
  1.8000		1.56323e-03		0e-3		-1.01602e-08
  2.0000		1.61203e-03		0e-3		-1.01517e-08
  2.2000		1.72473e-03		0e-3		-1.01184e-08
  2.4000		1.84474e-03		0e-3		-1.00944e-08
  2.6000		1.95487e-03		0e-3		-1.01198e-08
  2.8000		2.05560e-03		0e-3		-1.01622e-08
  3.0000		2.14891e-03		0e-3		-1.01759e-08
  3.2000		2.23563e-03		0e-3		-1.01950e-08
  3.4000		2.31608e-03		0e-3		-1.02564e-08
  3.6000		2.39202e-03		0e-3		-1.02587e-08
  3.8000		2.46539e-03		0e-3		-1.02794e-08
  4.0000		2.53848e-03		0e-3		-1.02880e-08
  4.2000		2.61263e-03		0e-3		-1.03052e-08
  4.4000		2.68874e-03		0e-3		-1.02816e-08
  4.6000		2.76673e-03		0e-3		-1.03501e-08
  4.8000		2.84679e-03		0e-3		-1.03167e-08
  5.0000		2.92845e-03		0e-3		-1.03624e-08
END_DB

BEGIN_DB
 ICCAP_VAR vb	1.0000
 ICCAP_VAR vg	3.0000
 ICCAP_VAR ve	0
 ICCAP_VAR vs	0

 #vd              id              ib              ig
  0.0000		-9.50365e-07		0e-3		-9.99975e-09
  0.2000		6.53839e-04		0e-3		-1.00272e-08
  0.4000		1.18068e-03		0e-3		-1.00685e-08
  0.6000		1.57155e-03		0e-3		-1.01256e-08
  0.8000		1.82786e-03		0e-3		-1.01044e-08
  1.0000		1.96549e-03		0e-3		-1.00884e-08
  1.2000		2.01625e-03		0e-3		-1.00867e-08
  1.4000		2.00391e-03		0e-3		-1.00812e-08
  1.6000		1.99186e-03		0e-3		-1.00287e-08
  1.8000		1.98075e-03		0e-3		-1.00553e-08
  2.0000		1.99109e-03		0e-3		-1.00396e-08
  2.2000		2.08160e-03		0e-3		-1.01296e-08
  2.4000		2.21461e-03		0e-3		-1.01405e-08
  2.6000		2.34201e-03		0e-3		-1.01238e-08
  2.8000		2.45770e-03		0e-3		-1.01292e-08
  3.0000		2.56400e-03		0e-3		-1.01799e-08
  3.2000		2.66218e-03		0e-3		-1.01629e-08
  3.4000		2.75303e-03		0e-3		-1.01840e-08
  3.6000		2.83777e-03		0e-3		-1.01846e-08
