! VERSION = 6.00
BEGIN_HEADER
 ICCAP_INPUTS
  vg         V  G GROUND SMU2 1E-005 LIN	2	0	-5	6	-1
  vb         V  B GROUND SMU4 0.01 LIN	3	-1         -1         1    -1        
  vd         V  D GROUND SMU1 0.1 LIN	1	0          -5          101   -0.05       
  vs         V  S GROUND SMU3 0.1 CON        0
  ve         V  E GROUND SMU5 0.1 CON        0
 ICCAP_OUTPUTS
  id         I  D GROUND SMU1 B
  ib         I  D GROUND SMU4 B
  ig         I  D GROUND SMU2 B
END_HEADER


BEGIN_DB
 ICCAP_VAR vb	1.0000
 ICCAP_VAR vg	0.0000
 ICCAP_VAR ve	0
 ICCAP_VAR vs	0

 #vd              id              ib              ig
  0.0000		-3.14116e-10		0e-3		-1.01522e-08
  -0.0500		-3.72291e-10		0e-3		-1.02116e-08
  -0.1000		-4.66347e-10		0e-3		-1.01852e-08
  -0.1500		-4.16279e-10		0e-3		-1.01855e-08
  -0.2000		-3.57270e-10		0e-3		-1.02853e-08
  -0.2500		-4.07815e-10		0e-3		-1.02301e-08
  -0.3000		-4.25935e-10		0e-3		-1.01565e-08
  -0.3500		-4.47869e-10		0e-3		-1.01510e-08
  -0.4000		-5.07355e-10		0e-3		-1.01030e-08
  -0.4500		-5.05805e-10		0e-3		-1.01197e-08
  -0.5000		-4.83513e-10		0e-3		-1.01695e-08
  -0.5500		-4.61102e-10		0e-3		-1.02108e-08
  -0.6000		-4.31657e-10		0e-3		-1.02630e-08
  -0.6500		-4.25220e-10		0e-3		-1.02779e-08
  -0.7000		-4.34875e-10		0e-3		-1.01733e-08
  -0.7500		-4.79102e-10		0e-3		-1.01686e-08
  -0.8000		-4.87208e-10		0e-3		-1.00917e-08
  -0.8500		-5.52058e-10		0e-3		-1.00871e-08
  -0.9000		-5.01156e-10		0e-3		-1.01594e-08
  -0.9500		-4.95911e-10		0e-3		-1.02034e-08
  -1.0000		-4.83990e-10		0e-3		-1.01831e-08
  -1.0500		-4.50730e-10		0e-3		-1.01721e-08
  -1.1000		-4.92692e-10		0e-3		-1.01788e-08
  -1.1500		-5.17964e-10		0e-3		-1.01604e-08
  -1.2000		-5.27382e-10		0e-3		-1.01999e-08
  -1.2500		-5.63860e-10		0e-3		-1.01645e-08
  -1.3000		-5.48244e-10		0e-3		-1.01569e-08
  -1.3500		-5.56350e-10		0e-3		-1.01726e-08
  -1.4000		-5.45383e-10		0e-3		-1.01904e-08
  -1.4500		-5.13077e-10		0e-3		-1.02268e-08
  -1.5000		-4.86135e-10		0e-3		-1.01990e-08
  -1.5500		-4.92096e-10		0e-3		-1.01540e-08
  -1.6000		-5.50985e-10		0e-3		-1.01415e-08
  -1.6500		-5.83887e-10		0e-3		-1.01486e-08
  -1.7000		-6.15358e-10		0e-3		-1.02059e-08
  -1.7500		-6.17266e-10		0e-3		-1.02061e-08
  -1.8000		-5.61714e-10		0e-3		-1.02291e-08
  -1.8500		-5.41449e-10		0e-3		-1.02155e-08
  -1.9000		-5.70774e-10		0e-3		-1.02686e-08
  -1.9500		-5.76973e-10		0e-3		-1.01973e-08
  -2.0000		-5.94139e-10		0e-3		-1.01924e-08
  -2.0500		-6.30379e-10		0e-3		-1.01540e-08
  -2.1000		-6.51360e-10		0e-3		-1.01172e-08
  -2.1500		-6.15716e-10		0e-3		-1.01904e-08
  -2.2000		-6.23345e-10		0e-3		-1.01691e-08
  -2.2500		-6.03080e-10		0e-3		-1.01486e-08
  -2.3000		-5.83410e-10		0e-3		-1.02265e-08
  -2.3500		-6.03318e-10		0e-3		-1.02005e-08
  -2.4000		-6.21438e-10		0e-3		-1.01773e-08
  -2.4500		-6.51717e-10		0e-3		-1.01396e-08
  -2.5000		-6.75797e-10		0e-3		-1.01384e-08
  -2.5500		-6.79970e-10		0e-3		-1.01540e-08
  -2.6000		-6.58989e-10		0e-3		-1.01651e-08
  -2.6500		-6.46830e-10		0e-3		-1.01850e-08
  -2.7000		-6.04510e-10		0e-3		-1.02344e-08
  -2.7500		-6.20365e-10		0e-3		-1.02092e-08
  -2.8000		-6.78301e-10		0e-3		-1.01943e-08
  -2.8500		-6.87122e-10		0e-3		-1.02026e-08
  -2.9000		-6.71506e-10		0e-3		-1.02086e-08
  -2.9500		-7.06553e-10		0e-3		-1.02003e-08
  -3.0000		-6.93083e-10		0e-3		-1.01821e-08
  -3.0500		-6.97851e-10		0e-3		-1.02175e-08
  -3.1000		-6.55770e-10		0e-3		-1.02029e-08
  -3.1500		-6.76751e-10		0e-3		-1.02079e-08
  -3.2000		-7.10607e-10		0e-3		-1.01975e-08
  -3.2500		-7.06553e-10		0e-3		-1.01961e-08
  -3.3000		-7.12872e-10		0e-3		-1.01326e-08
  -3.3500		-7.81178e-10		0e-3		-1.01892e-08
  -3.4000		-7.46131e-10		0e-3		-1.02298e-08
  -3.4500		-7.48754e-10		0e-3		-1.02341e-08
  -3.5000		-7.48634e-10		0e-3		-1.02191e-08
  -3.5500		-6.33955e-10		0e-3		-1.02019e-08
  -3.6000		-7.58767e-10		0e-3		-1.01902e-08
  -3.6500		-7.64370e-10		0e-3		-1.02379e-08
  -3.7000		-7.74503e-10		0e-3		-1.02249e-08
  -3.7500		-8.15392e-10		0e-3		-1.01875e-08
  -3.8000		-8.28981e-10		0e-3		-1.02364e-08
  -3.8500		-8.38518e-10		0e-3		-1.02814e-08
  -3.9000		-8.25405e-10		0e-3		-1.02036e-08
  -3.9500		-8.32319e-10		0e-3		-1.03055e-08
  -4.0000		-7.96199e-10		0e-3		-1.02388e-08
  -4.0500		-8.39114e-10		0e-3		-1.02130e-08
  -4.1000		-9.05037e-10		0e-3		-1.01314e-08
  -4.1500		-8.96096e-10		0e-3		-1.01688e-08
  -4.2000		-9.04679e-10		0e-3		-1.02135e-08
  -4.2500		-8.92997e-10		0e-3		-1.01848e-08
  -4.3000		-9.17792e-10		0e-3		-1.02265e-08
  -4.3500		-9.18388e-10		0e-3		-1.01932e-08
  -4.4000		-8.98600e-10		0e-3		-1.01508e-08
  -4.4500		-9.40561e-10		0e-3		-1.02419e-08
  -4.5000		-9.40800e-10		0e-3		-1.01892e-08
  -4.5500		-1.01459e-09		0e-3		-1.01312e-08
  -4.6000		-9.77278e-10		0e-3		-1.01326e-08
  -4.6500		-1.01197e-09		0e-3		-1.01986e-08
  -4.7000		-1.03962e-09		0e-3		-1.01707e-08
  -4.7500		-1.01852e-09		0e-3		-1.01541e-08
  -4.8000		-1.03235e-09		0e-3		-1.02139e-08
  -4.8500		-1.04129e-09		0e-3		-1.01902e-08
  -4.9000		-1.08147e-09		0e-3		-1.02072e-08
  -4.9500		-1.09899e-09		0e-3		-1.01951e-08
  -5.0000		-1.15430e-09		0e-3		-1.02015e-08
END_DB

BEGIN_DB
 ICCAP_VAR vb	1.0000
 ICCAP_VAR vg	-1.0000
 ICCAP_VAR ve	0
 ICCAP_VAR vs	0

 #vd              id              ib              ig
  0.0000		-2.25306e-10		0e-3		-1.02158e-08
  -0.0500		-3.53932e-10		0e-3		-1.02596e-08
  -0.1000		-4.11630e-10		0e-3		-1.02756e-08
  -0.1500		-4.15206e-10		0e-3		-1.02105e-08
  -0.2000		-4.38094e-10		0e-3		-1.02532e-08
  -0.2500		-4.39763e-10		0e-3		-1.02414e-08
  -0.3000		-4.64678e-10		0e-3		-1.02233e-08
  -0.3500		-4.94003e-10		0e-3		-1.02576e-08
  -0.4000		-4.83513e-10		0e-3		-1.01738e-08
  -0.4500		-5.24044e-10		0e-3		-1.01962e-08
  -0.5000		-4.98891e-10		0e-3		-1.02206e-08
  -0.5500		-5.03898e-10		0e-3		-1.02700e-08
  -0.6000		-4.87447e-10		0e-3		-1.03014e-08
  -0.6500		-5.20945e-10		0e-3		-1.02837e-08
  -0.7000		-5.20825e-10		0e-3		-1.02630e-08
  -0.7500		-5.27382e-10		0e-3		-1.02174e-08
  -0.8000		-5.27740e-10		0e-3		-1.02568e-08
  -0.8500		-5.50628e-10		0e-3		-1.02143e-08
  -0.9000		-5.30839e-10		0e-3		-1.02545e-08
  -0.9500		-5.26428e-10		0e-3		-1.02462e-08
  -1.0000		-5.66959e-10		0e-3		-1.02404e-08
  -1.0500		-5.01394e-10		0e-3		-1.02174e-08
  -1.1000		-5.40733e-10		0e-3		-1.02124e-08
  -1.1500		-5.68271e-10		0e-3		-1.02096e-08
  -1.2000		-5.57065e-10		0e-3		-1.02206e-08
  -1.2500		-5.91397e-10		0e-3		-1.02301e-08
  -1.3000		-5.91874e-10		0e-3		-1.02144e-08
  -1.3500		-5.87940e-10		0e-3		-1.02378e-08
  -1.4000		-5.92113e-10		0e-3		-1.02744e-08
  -1.4500		-5.46217e-10		0e-3		-1.02757e-08
  -1.5000		-5.76258e-10		0e-3		-1.02072e-08
  -1.5500		-5.76735e-10		0e-3		-1.01963e-08
  -1.6000		-6.11782e-10		0e-3		-1.01886e-08
  -1.6500		-6.36578e-10		0e-3		-1.02274e-08
  -1.7000		-6.35505e-10		0e-3		-1.02123e-08
  -1.7500		-6.05941e-10		0e-3		-1.02235e-08
  -1.8000		-6.21319e-10		0e-3		-1.02097e-08
  -1.8500		-5.89609e-10		0e-3		-1.02620e-08
  -1.9000		-6.27995e-10		0e-3		-1.02124e-08
  -1.9500		-6.29544e-10		0e-3		-1.02235e-08
  -2.0000		-6.40392e-10		0e-3		-1.02048e-08
  -2.0500		-6.13332e-10		0e-3		-1.01728e-08
  -2.1000		-6.04153e-10		0e-3		-1.01559e-08
  -2.1500		-6.71029e-10		0e-3		-1.02054e-08
  -2.2000		-6.71983e-10		0e-3		-1.01662e-08
  -2.2500		-6.61373e-10		0e-3		-1.02186e-08
  -2.3000		-6.40869e-10		0e-3		-1.02462e-08
  -2.3500		-6.74725e-10		0e-3		-1.01942e-08
  -2.4000		-6.62327e-10		0e-3		-1.01960e-08
  -2.4500		-6.93917e-10		0e-3		-1.02340e-08
  -2.5000		-6.91414e-10		0e-3		-1.02057e-08
  -2.5500		-6.79135e-10		0e-3		-1.01768e-08
  -2.6000		-7.17282e-10		0e-3		-1.02078e-08
  -2.6500		-7.05719e-10		0e-3		-1.01986e-08
  -2.7000		-6.78897e-10		0e-3		-1.01671e-08
  -2.7500		-7.02143e-10		0e-3		-1.02050e-08
  -2.8000		-7.22170e-10		0e-3		-1.02081e-08
  -2.8500		-7.25269e-10		0e-3		-1.02104e-08
  -2.9000		-7.24196e-10		0e-3		-1.01889e-08
  -2.9500		-7.70688e-10		0e-3		-1.01964e-08
  -3.0000		-7.39813e-10		0e-3		-1.01916e-08
  -3.0500		-7.42674e-10		0e-3		-1.01998e-08
  -3.1000		-7.29084e-10		0e-3		-1.02483e-08
  -3.1500		-7.06434e-10		0e-3		-1.01612e-08
  -3.2000		-7.44820e-10		0e-3		-1.02220e-08
  -3.2500		-7.71761e-10		0e-3		-1.01682e-08
  -3.3000		-7.38859e-10		0e-3		-1.01525e-08
  -3.3500		-8.00252e-10		0e-3		-1.01695e-08
  -3.4000		-8.12888e-10		0e-3		-1.02160e-08
  -3.4500		-8.10027e-10		0e-3		-1.01913e-08
  -3.5000		-7.87020e-10		0e-3		-1.02367e-08
  -3.5500		-8.00133e-10		0e-3		-1.01991e-08
  -3.6000		-8.02159e-10		0e-3		-1.02502e-08
  -3.6500		-7.88093e-10		0e-3		-1.02129e-08
  -3.7000		-7.88212e-10		0e-3		-1.02646e-08
  -3.7500		-8.28147e-10		0e-3		-1.02053e-08
  -3.8000		-8.09312e-10		0e-3		-1.02341e-08
  -3.8500		-8.27193e-10		0e-3		-1.02446e-08
  -3.9000		-8.29697e-10		0e-3		-1.01976e-08
  -3.9500		-8.71301e-10		0e-3		-1.02032e-08
  -4.0000		-8.38876e-10		0e-3		-1.02220e-08
  -4.0500		-8.63433e-10		0e-3		-1.02085e-08
  -4.1000		-8.58307e-10		0e-3		-1.02656e-08
  -4.1500		-8.62718e-10		0e-3		-1.01666e-08
  -4.2000		-8.87871e-10		0e-3		-1.02055e-08
  -4.2500		-8.74281e-10		0e-3		-1.02345e-08
  -4.3000		-8.80480e-10		0e-3		-1.01998e-08
  -4.3500		-9.10759e-10		0e-3		-1.01981e-08
  -4.4000		-8.73685e-10		0e-3		-1.01893e-08
  -4.4500		-9.02772e-10		0e-3		-1.02236e-08
  -4.5000		-8.94785e-10		0e-3		-1.02204e-08
  -4.5500		-8.92043e-10		0e-3		-1.01898e-08
  -4.6000		-9.22918e-10		0e-3		-1.01858e-08
  -4.6500		-9.35912e-10		0e-3		-1.02320e-08
  -4.7000		-9.52959e-10		0e-3		-1.02051e-08
  -4.7500		-9.85503e-10		0e-3		-1.01906e-08
  -4.8000		-9.79900e-10		0e-3		-1.01933e-08
  -4.8500		-9.69410e-10		0e-3		-1.01634e-08
  -4.9000		-9.79424e-10		0e-3		-1.01562e-08
  -4.9500		-9.88483e-10		0e-3		-1.01821e-08
  -5.0000		-9.94325e-10		0e-3		-1.01619e-08
END_DB

BEGIN_DB
 ICCAP_VAR vb	1.0000
 ICCAP_VAR vg	-2.0000
 ICCAP_VAR ve	0
 ICCAP_VAR vs	0

 #vd              id              ib              ig
  0.0000		4.19565e-08		0e-3		-1.03029e-08
  -0.0500		-2.18604e-05		0e-3		-1.02563e-08
  -0.1000		-4.00491e-05		0e-3		-1.02394e-08
  -0.1500		-5.51105e-05		0e-3		-1.02395e-08
  -0.2000		-6.61731e-05		0e-3		-1.02303e-08
  -0.2500		-7.41720e-05		0e-3		-1.02113e-08
  -0.3000		-7.95364e-05		0e-3		-1.01916e-08
  -0.3500		-8.28624e-05		0e-3		-1.01978e-08
  -0.4000		-8.46744e-05		0e-3		-1.01916e-08
  -0.4500		-8.57592e-05		0e-3		-1.02069e-08
  -0.5000		-8.64267e-05		0e-3		-1.01789e-08
  -0.5500		-8.68320e-05		0e-3		-1.01928e-08
  -0.6000		-8.72135e-05		0e-3		-1.01663e-08
  -0.6500		-8.74877e-05		0e-3		-1.01815e-08
  -0.7000		-8.78096e-05		0e-3		-1.01938e-08
  -0.7500		-8.80241e-05		0e-3		-1.01576e-08
  -0.8000		-8.82745e-05		0e-3		-1.02448e-08
  -0.8500		-8.85248e-05		0e-3		-1.02030e-08
  -0.9000		-8.87275e-05		0e-3		-1.01870e-08
  -0.9500		-8.88586e-05		0e-3		-1.02218e-08
  -1.0000		-8.90851e-05		0e-3		-1.01988e-08
  -1.0500		-8.92639e-05		0e-3		-1.02386e-08
  -1.1000		-8.94904e-05		0e-3		-1.01936e-08
  -1.1500		-8.96335e-05		0e-3		-1.02098e-08
  -1.2000		-8.97288e-05		0e-3		-1.01986e-08
  -1.2500		-8.98957e-05		0e-3		-1.01867e-08
  -1.3000		-9.00388e-05		0e-3		-1.02087e-08
  -1.3500		-9.02414e-05		0e-3		-1.02110e-08
  -1.4000		-9.03606e-05		0e-3		-1.02208e-08
  -1.4500		-9.05514e-05		0e-3		-1.01970e-08
  -1.5000		-9.06706e-05		0e-3		-1.02088e-08
  -1.5500		-9.08732e-05		0e-3		-1.01527e-08
  -1.6000		-9.09924e-05		0e-3		-1.01871e-08
  -1.6500		-9.10759e-05		0e-3		-1.01687e-08
  -1.7000		-9.12905e-05		0e-3		-1.02166e-08
  -1.7500		-9.13620e-05		0e-3		-1.02211e-08
  -1.8000		-9.15289e-05		0e-3		-1.02153e-08
  -1.8500		-9.17077e-05		0e-3		-1.02228e-08
  -1.9000		-9.17673e-05		0e-3		-1.02026e-08
  -1.9500		-9.19223e-05		0e-3		-1.01827e-08
  -2.0000		-9.20534e-05		0e-3		-1.01986e-08
  -2.0500		-9.21249e-05		0e-3		-1.01972e-08
  -2.1000		-9.23634e-05		0e-3		-1.01959e-08
  -2.1500		-9.25064e-05		0e-3		-1.02105e-08
  -2.2000		-9.25779e-05		0e-3		-1.02209e-08
  -2.2500		-9.27687e-05		0e-3		-1.02071e-08
  -2.3000		-9.29475e-05		0e-3		-1.01750e-08
  -2.3500		-9.31144e-05		0e-3		-1.01886e-08
  -2.4000		-9.32574e-05		0e-3		-1.01771e-08
  -2.4500		-9.33886e-05		0e-3		-1.02166e-08
  -2.5000		-9.34720e-05		0e-3		-1.01769e-08
  -2.5500		-9.35912e-05		0e-3		-1.02026e-08
  -2.6000		-9.37223e-05		0e-3		-1.02408e-08
  -2.6500		-9.38058e-05		0e-3		-1.02181e-08
  -2.7000		-9.39727e-05		0e-3		-1.02531e-08
  -2.7500		-9.41753e-05		0e-3		-1.02131e-08
  -2.8000		-9.42349e-05		0e-3		-1.02037e-08
  -2.8500		-9.43542e-05		0e-3		-1.02131e-08
  -2.9000		-9.45091e-05		0e-3		-1.02080e-08
  -2.9500		-9.45926e-05		0e-3		-1.02493e-08
  -3.0000		-9.47237e-05		0e-3		-1.02345e-08
  -3.0500		-9.48191e-05		0e-3		-1.01843e-08
  -3.1000		-9.49979e-05		0e-3		-1.01998e-08
  -3.1500		-9.51171e-05		0e-3		-1.01819e-08
  -3.2000		-9.52601e-05		0e-3		-1.01502e-08
  -3.2500		-9.53913e-05		0e-3		-1.01577e-08
  -3.3000		-9.54986e-05		0e-3		-1.01269e-08
  -3.3500		-9.55939e-05		0e-3		-1.02296e-08
  -3.4000		-9.56655e-05		0e-3		-1.02326e-08
  -3.4500		-9.59396e-05		0e-3		-1.02272e-08
  -3.5000		-9.59873e-05		0e-3		-1.02371e-08
  -3.5500		-9.61184e-05		0e-3		-1.02292e-08
  -3.6000		-9.62973e-05		0e-3		-1.01994e-08
  -3.6500		-9.64761e-05		0e-3		-1.01736e-08
  -3.7000		-9.65357e-05		0e-3		-1.02218e-08
  -3.7500		-9.66907e-05		0e-3		-1.02507e-08
  -3.8000		-9.68695e-05		0e-3		-1.02315e-08
  -3.8500		-9.70125e-05		0e-3		-1.01982e-08
  -3.9000		-9.71079e-05		0e-3		-1.02532e-08
  -3.9500		-9.72748e-05		0e-3		-1.02395e-08
  -4.0000		-9.73821e-05		0e-3		-1.02453e-08
  -4.0500		-9.75251e-05		0e-3		-1.02185e-08
  -4.1000		-9.77159e-05		0e-3		-1.02316e-08
  -4.1500		-9.78470e-05		0e-3		-1.02596e-08
  -4.2000		-9.79900e-05		0e-3		-1.02518e-08
  -4.2500		-9.82165e-05		0e-3		-1.02162e-08
  -4.3000		-9.83000e-05		0e-3		-1.02439e-08
  -4.3500		-9.85146e-05		0e-3		-1.02323e-08
  -4.4000		-9.88007e-05		0e-3		-1.02370e-08
  -4.4500		-9.89556e-05		0e-3		-1.02146e-08
  -4.5000		-9.91583e-05		0e-3		-1.02042e-08
  -4.5500		-9.94205e-05		0e-3		-1.01728e-08
  -4.6000		-9.95040e-05		0e-3		-1.02053e-08
  -4.6500		-9.98020e-05		0e-3		-1.01718e-08
  -4.7000		-1.00052e-04		0e-3		-1.02148e-08
  -4.7500		-1.00315e-04		0e-3		-1.02373e-08
  -4.8000		-1.00565e-04		0e-3		-1.02750e-08
  -4.8500		-1.00887e-04		0e-3		-1.02632e-08
  -4.9000		-1.01101e-04		0e-3		-1.03327e-08
  -4.9500		-1.01388e-04		0e-3		-1.02519e-08
  -5.0000		-1.01721e-04		0e-3		-1.02451e-08
END_DB

BEGIN_DB
 ICCAP_VAR vb	1.0000
 ICCAP_VAR vg	-3.0000
 ICCAP_VAR ve	0
 ICCAP_VAR vs	0

 #vd              id              ib              ig
  0.0000		5.07844e-09		0e-3		-1.07205e-08
  -0.0500		-8.10250e-05		0e-3		-1.02963e-08
  -0.1000		-1.59025e-04		0e-3		-1.02621e-08
  -0.1500		-2.33066e-04		0e-3		-1.02917e-08
  -0.2000		-3.03352e-04		0e-3		-1.01758e-08
  -0.2500		-3.69942e-04		0e-3		-1.02634e-08
  -0.3000		-4.32861e-04		0e-3		-1.02230e-08
  -0.3500		-4.91929e-04		0e-3		-1.02608e-08
  -0.4000		-5.47338e-04		0e-3		-1.02392e-08
  -0.4500		-5.98931e-04		0e-3		-1.01798e-08
  -0.5000		-6.46865e-04		0e-3		-1.01844e-08
  -0.5500		-6.91223e-04		0e-3		-1.02216e-08
  -0.6000		-7.31766e-04		0e-3		-1.01967e-08
  -0.6500		-7.68733e-04		0e-3		-1.02034e-08
  -0.7000		-8.02183e-04		0e-3		-1.01688e-08
  -0.7500		-8.32009e-04		0e-3		-1.01644e-08
  -0.8000		-8.58438e-04		0e-3		-1.01663e-08
  -0.8500		-8.81505e-04		0e-3		-1.01864e-08
  -0.9000		-9.01449e-04		0e-3		-1.01824e-08
  -0.9500		-9.18436e-04		0e-3		-1.01584e-08
  -1.0000		-9.32753e-04		0e-3		-1.01733e-08
  -1.0500		-9.44865e-04		0e-3		-1.01455e-08
  -1.1000		-9.54556e-04		0e-3		-1.01316e-08
  -1.1500		-9.62579e-04		0e-3		-1.01614e-08
  -1.2000		-9.69231e-04		0e-3		-1.01990e-08
  -1.2500		-9.74679e-04		0e-3		-1.01701e-08
  -1.3000		-9.79280e-04		0e-3		-1.01619e-08
  -1.3500		-9.83465e-04		0e-3		-1.01871e-08
  -1.4000		-9.86862e-04		0e-3		-1.01191e-08
  -1.4500		-9.90140e-04		0e-3		-1.02103e-08
  -1.5000		-9.93025e-04		0e-3		-1.01595e-08
  -1.5500		-9.95970e-04		0e-3		-1.01358e-08
  -1.6000		-9.98580e-04		0e-3		-1.01959e-08
  -1.6500		-1.00106e-03		0e-3		-1.00845e-08
  -1.7000		-1.00347e-03		0e-3		-1.01173e-08
  -1.7500		-1.00582e-03		0e-3		-1.02779e-08
  -1.8000		-1.00808e-03		0e-3		-1.01374e-08
  -1.8500		-1.01029e-03		0e-3		-1.02001e-08
  -1.9000		-1.01235e-03		0e-3		-1.02594e-08
  -1.9500		-1.01448e-03		0e-3		-1.02316e-08
  -2.0000		-1.01668e-03		0e-3		-1.02748e-08
  -2.0500		-1.01860e-03		0e-3		-1.01597e-08
  -2.1000		-1.02055e-03		0e-3		-1.01821e-08
  -2.1500		-1.02255e-03		0e-3		-1.01336e-08
  -2.2000		-1.02448e-03		0e-3		-1.02328e-08
  -2.2500		-1.02631e-03		0e-3		-1.00650e-08
  -2.3000		-1.02826e-03		0e-3		-1.01713e-08
  -2.3500		-1.03002e-03		0e-3		-1.01358e-08
  -2.4000		-1.03188e-03		0e-3		-1.01435e-08
  -2.4500		-1.03363e-03		0e-3		-1.02187e-08
  -2.5000		-1.03549e-03		0e-3		-1.03041e-08
  -2.5500		-1.03716e-03		0e-3		-1.01351e-08
  -2.6000		-1.03887e-03		0e-3		-1.01892e-08
  -2.6500		-1.04059e-03		0e-3		-1.02242e-08
  -2.7000		-1.04226e-03		0e-3		-1.01963e-08
  -2.7500		-1.04382e-03		0e-3		-1.02887e-08
  -2.8000		-1.04553e-03		0e-3		-1.01720e-08
  -2.8500		-1.04706e-03		0e-3		-1.01560e-08
  -2.9000		-1.04873e-03		0e-3		-1.01931e-08
  -2.9500		-1.05037e-03		0e-3		-1.01941e-08
  -3.0000		-1.05201e-03		0e-3		-1.01928e-08
  -3.0500		-1.05363e-03		0e-3		-1.03289e-08
  -3.1000		-1.05506e-03		0e-3		-1.01928e-08
  -3.1500		-1.05664e-03		0e-3		-1.02326e-08
  -3.2000		-1.05817e-03		0e-3		-1.01801e-08
  -3.2500		-1.05969e-03		0e-3		-1.02084e-08
  -3.3000		-1.06121e-03		0e-3		-1.02564e-08
  -3.3500		-1.06270e-03		0e-3		-1.01578e-08
  -3.4000		-1.06407e-03		0e-3		-1.00896e-08
  -3.4500		-1.06552e-03		0e-3		-1.02066e-08
  -3.5000		-1.06701e-03		0e-3		-1.02084e-08
  -3.5500		-1.06853e-03		0e-3		-1.02090e-08
  -3.6000		-1.06984e-03		0e-3		-1.01733e-08
  -3.6500		-1.07131e-03		0e-3		-1.01612e-08
  -3.7000		-1.07274e-03		0e-3		-1.01643e-08
  -3.7500		-1.07416e-03		0e-3		-1.01539e-08
  -3.8000		-1.07559e-03		0e-3		-1.01763e-08
  -3.8500		-1.07713e-03		0e-3		-1.01738e-08
  -3.9000		-1.07850e-03		0e-3		-1.02029e-08
  -3.9500		-1.07993e-03		0e-3		-1.02065e-08
  -4.0000		-1.08134e-03		0e-3		-1.01916e-08
  -4.0500		-1.08278e-03		0e-3		-1.01634e-08
  -4.1000		-1.08423e-03		0e-3		-1.02252e-08
  -4.1500		-1.08564e-03		0e-3		-1.01801e-08
  -4.2000		-1.08719e-03		0e-3		-1.01408e-08
  -4.2500		-1.08863e-03		0e-3		-1.02075e-08
  -4.3000		-1.09016e-03		0e-3		-1.01879e-08
  -4.3500		-1.09167e-03		0e-3		-1.01447e-08
  -4.4000		-1.09341e-03		0e-3		-1.01700e-08
  -4.4500		-1.09496e-03		0e-3		-1.01453e-08
  -4.5000		-1.09661e-03		0e-3		-1.01373e-08
  -4.5500		-1.09856e-03		0e-3		-1.01976e-08
  -4.6000		-1.10042e-03		0e-3		-1.01753e-08
  -4.6500		-1.10232e-03		0e-3		-1.02092e-08
  -4.7000		-1.10424e-03		0e-3		-1.02707e-08
  -4.7500		-1.10625e-03		0e-3		-1.02214e-08
  -4.8000		-1.10836e-03		0e-3		-1.01831e-08
  -4.8500		-1.11043e-03		0e-3		-1.02361e-08
  -4.9000		-1.11277e-03		0e-3		-1.02025e-08
  -4.9500		-1.11493e-03		0e-3		-1.01656e-08
  -5.0000		-1.11730e-03		0e-3		-1.01467e-08
END_DB

BEGIN_DB
 ICCAP_VAR vb	1.0000
 ICCAP_VAR vg	-4.0000
 ICCAP_VAR ve	0
 ICCAP_VAR vs	0

 #vd              id              ib              ig
  0.0000		-3.58059e-07		0e-3		-1.03248e-08
  -0.0500		-1.33395e-04		0e-3		-1.02587e-08
  -0.1000		-2.63441e-04		0e-3		-1.01767e-08
  -0.1500		-3.90351e-04		0e-3		-1.02308e-08
  -0.2000		-5.14150e-04		0e-3		-1.02148e-08
  -0.2500		-6.34539e-04		0e-3		-1.02155e-08
  -0.3000		-7.51686e-04		0e-3		-1.01959e-08
  -0.3500		-8.65376e-04		0e-3		-1.01607e-08
  -0.4000		-9.75823e-04		0e-3		-1.01893e-08
  -0.4500		-1.08290e-03		0e-3		-1.01517e-08
  -0.5000		-1.18661e-03		0e-3		-1.02501e-08
  -0.5500		-1.28696e-03		0e-3		-1.02462e-08
  -0.6000		-1.38406e-03		0e-3		-1.02059e-08
  -0.6500		-1.47779e-03		0e-3		-1.02161e-08
  -0.7000		-1.56813e-03		0e-3		-1.01981e-08
  -0.7500		-1.65510e-03		0e-3		-1.01795e-08
  -0.8000		-1.73876e-03		0e-3		-1.01491e-08
  -0.8500		-1.81909e-03		0e-3		-1.01726e-08
  -0.9000		-1.89613e-03		0e-3		-1.01702e-08
  -0.9500		-1.96979e-03		0e-3		-1.02100e-08
  -1.0000		-2.04027e-03		0e-3		-1.01889e-08
  -1.0500		-2.10828e-03		0e-3		-1.01706e-08
  -1.1000		-2.17198e-03		0e-3		-1.01945e-08
