! VERSION = 6.00
BEGIN_HEADER
 ICCAP_INPUTS
  vg         V  G GROUND SMU2 1E-005 LIN        1    1          -5          121   -0.05       
  vb         V  B GROUND SMU4 0.01 LIN        2    -1          -1         1    -1        
  vd         V  D GROUND SMU1 0.1 LIN        3    -0.05       -5          6    -0.99      
  vs         V  S GROUND SMU3 0.1 CON        0
  ve         V  E GROUND SMU5 0.1 CON        0
 ICCAP_OUTPUTS
  id         I  D GROUND SMU1 B
  ib         I  D GROUND SMU4 B
  ig         I  D GROUND SMU2 B
END_HEADER


BEGIN_DB
 ICCAP_VAR vd	-0.0500
 ICCAP_VAR vb	1.0000
 ICCAP_VAR ve	0
 ICCAP_VAR vs	0

 #vg              id              ig              ib
  1.0000		-3.80874e-10		-1.03971e-08		0e-3
  0.9500		-4.04358e-10		-1.02022e-08		0e-3
  0.9000		-3.85404e-10		-1.02270e-08		0e-3
  0.8500		-3.51787e-10		-1.01764e-08		0e-3
  0.8000		-3.21865e-10		-1.02271e-08		0e-3
  0.7500		-3.45230e-10		-1.01972e-08		0e-3
  0.7000		-3.60966e-10		-1.02334e-08		0e-3
  0.6500		-3.75271e-10		-1.01954e-08		0e-3
  0.6000		-3.91960e-10		-1.01802e-08		0e-3
  0.5500		-3.64900e-10		-1.01870e-08		0e-3
  0.5000		-3.44753e-10		-1.01875e-08		0e-3
  0.4500		-3.66092e-10		-1.02030e-08		0e-3
  0.4000		-3.46899e-10		-1.02022e-08		0e-3
  0.3500		-3.26395e-10		-1.01812e-08		0e-3
  0.3000		-2.95758e-10		-1.02431e-08		0e-3
  0.2500		-3.37362e-10		-1.01746e-08		0e-3
  0.2000		-3.43680e-10		-1.01920e-08		0e-3
  0.1500		-3.45230e-10		-1.01639e-08		0e-3
  0.1000		-3.60966e-10		-1.01209e-08		0e-3
  0.0500		-3.68595e-10		-1.01120e-08		0e-3
  -0.0000		-3.44753e-10		-1.01510e-08		0e-3
  -0.0500		-3.36766e-10		-1.02307e-08		0e-3
  -0.1000		-3.39866e-10		-1.02173e-08		0e-3
  -0.1500		-3.15428e-10		-1.02127e-08		0e-3
  -0.2000		-3.45349e-10		-1.01752e-08		0e-3
  -0.2500		-3.53932e-10		-1.01523e-08		0e-3
  -0.3000		-3.80516e-10		-1.01677e-08		0e-3
  -0.3500		-3.41296e-10		-1.01219e-08		0e-3
  -0.4000		-3.25203e-10		-1.01467e-08		0e-3
  -0.4500		-3.45469e-10		-1.01641e-08		0e-3
  -0.5000		-3.27945e-10		-1.01271e-08		0e-3
  -0.5500		-3.42250e-10		-1.01664e-08		0e-3
  -0.6000		-3.50833e-10		-1.01397e-08		0e-3
  -0.6500		-3.04699e-10		-1.01783e-08		0e-3
  -0.7000		-3.57747e-10		-1.01333e-08		0e-3
  -0.7500		-3.53575e-10		-1.01354e-08		0e-3
  -0.8000		-3.77655e-10		-1.01665e-08		0e-3
  -0.8500		-3.61204e-10		-1.01786e-08		0e-3
  -0.9000		-3.57270e-10		-1.01746e-08		0e-3
  -0.9500		-3.49879e-10		-1.01612e-08		0e-3
  -1.0000		-3.71099e-10		-1.01347e-08		0e-3
  -1.0500		-4.40717e-10		-1.01984e-08		0e-3
  -1.1000		-5.28336e-10		-1.01511e-08		0e-3
  -1.1500		-8.40902e-10		-1.01681e-08		0e-3
  -1.2000		-1.75333e-09		-1.01725e-08		0e-3
  -1.2500		-4.50277e-09		-1.01620e-08		0e-3
  -1.3000		-1.23980e-08		-1.01309e-08		0e-3
  -1.3500		-3.49487e-08		-1.01613e-08		0e-3
  -1.4000		-9.74107e-08		-1.01925e-08		0e-3
  -1.4500		-2.58715e-07		-1.01869e-08		0e-3
  -1.5000		-6.27160e-07		-1.01634e-08		0e-3
  -1.5500		-1.33924e-06		-1.01469e-08		0e-3
  -1.6000		-2.48235e-06		-1.01807e-08		0e-3
  -1.6500		-4.06686e-06		-1.01343e-08		0e-3
  -1.7000		-6.02961e-06		-1.01593e-08		0e-3
  -1.7500		-8.29160e-06		-1.01564e-08		0e-3
  -1.8000		-1.07889e-05		-1.01504e-08		0e-3
  -1.8500		-1.34478e-05		-1.02129e-08		0e-3
  -1.9000		-1.62224e-05		-1.01584e-08		0e-3
  -1.9500		-1.90927e-05		-1.01925e-08		0e-3
  -2.0000		-2.20225e-05		-1.01600e-08		0e-3
  -2.0500		-2.49999e-05		-1.01907e-08		0e-3
  -2.1000		-2.80039e-05		-1.02009e-08		0e-3
  -2.1500		-3.10251e-05		-1.01941e-08		0e-3
  -2.2000		-3.40573e-05		-1.02133e-08		0e-3
  -2.2500		-3.70837e-05		-1.01968e-08		0e-3
  -2.3000		-4.01086e-05		-1.01733e-08		0e-3
  -2.3500		-4.31336e-05		-1.01898e-08		0e-3
  -2.4000		-4.61372e-05		-1.01814e-08		0e-3
  -2.4500		-4.91314e-05		-1.01697e-08		0e-3
  -2.5000		-5.26309e-05		-1.01895e-08		0e-3
  -2.5500		-5.55754e-05		-1.01987e-08		0e-3
  -2.6000		-5.85198e-05		-1.01724e-08		0e-3
  -2.6500		-6.14762e-05		-1.01920e-08		0e-3
  -2.7000		-6.43373e-05		-1.01827e-08		0e-3
  -2.7500		-6.72221e-05		-1.01609e-08		0e-3
  -2.8000		-7.01070e-05		-1.02094e-08		0e-3
  -2.8500		-7.29918e-05		-1.01758e-08		0e-3
  -2.9000		-7.58886e-05		-1.01544e-08		0e-3
  -2.9500		-7.86424e-05		-1.01641e-08		0e-3
  -3.0000		-8.14557e-05		-1.01681e-08		0e-3
  -3.0500		-8.42571e-05		-1.01928e-08		0e-3
  -3.1000		-8.69393e-05		-1.01768e-08		0e-3
  -3.1500		-8.97050e-05		-1.02093e-08		0e-3
  -3.2000		-9.23991e-05		-1.01633e-08		0e-3
  -3.2500		-9.50933e-05		-1.01917e-08		0e-3
  -3.3000		-9.78351e-05		-1.01696e-08		0e-3
  -3.3500		-1.00565e-04		-1.01888e-08		0e-3
  -3.4000		-1.03116e-04		-1.01639e-08		0e-3
  -3.4500		-1.05727e-04		-1.01464e-08		0e-3
  -3.5000		-1.08349e-04		-1.01714e-08		0e-3
  -3.5500		-1.10984e-04		-1.01417e-08		0e-3
  -3.6000		-1.13535e-04		-1.01839e-08		0e-3
  -3.6500		-1.16086e-04		-1.01551e-08		0e-3
  -3.7000		-1.18589e-04		-1.02253e-08		0e-3
  -3.7500		-1.21200e-04		-1.01607e-08		0e-3
  -3.8000		-1.23668e-04		-1.01533e-08		0e-3
  -3.8500		-1.26112e-04		-1.01396e-08		0e-3
  -3.9000		-1.28579e-04		-1.02408e-08		0e-3
  -3.9500		-1.31059e-04		-1.01730e-08		0e-3
  -4.0000		-1.33562e-04		-1.02110e-08		0e-3
  -4.0500		-1.35958e-04		-1.01699e-08		0e-3
  -4.1000		-1.38330e-04		-1.02237e-08		0e-3
  -4.1500		-1.40715e-04		-1.02510e-08		0e-3
  -4.2000		-1.43111e-04		-1.01379e-08		0e-3
  -4.2500		-1.45555e-04		-1.01655e-08		0e-3
  -4.3000		-1.47891e-04		-1.01540e-08		0e-3
  -4.3500		-1.50239e-04		-1.01912e-08		0e-3
  -4.4000		-1.52600e-04		-1.01571e-08		0e-3
  -4.4500		-1.54853e-04		-1.01720e-08		0e-3
  -4.5000		-1.57154e-04		-1.01920e-08		0e-3
  -4.5500		-1.59478e-04		-1.02063e-08		0e-3
  -4.6000		-1.61719e-04		-1.01807e-08		0e-3
  -4.6500		-1.63984e-04		-1.01624e-08		0e-3
  -4.7000		-1.66297e-04		-1.01891e-08		0e-3
  -4.7500		-1.68467e-04		-1.01717e-08		0e-3
  -4.8000		-1.70743e-04		-1.01625e-08		0e-3
  -4.8500		-1.72973e-04		-1.01466e-08		0e-3
  -4.9000		-1.75166e-04		-1.02009e-08		0e-3
  -4.9500		-1.77300e-04		-1.01436e-08		0e-3
  -5.0000		-1.79482e-04		-1.01990e-08		0e-3
END_DB

BEGIN_DB
 ICCAP_VAR vd	-1.0400
 ICCAP_VAR vb	1.0000
 ICCAP_VAR ve	0
 ICCAP_VAR vs	0

 #vg              id              ig              ib
  1.0000		-6.11544e-10		-1.00597e-08		0e-3
  0.9500		-5.49078e-10		-1.01037e-08		0e-3
  0.9000		-5.34058e-10		-1.01385e-08		0e-3
  0.8500		-5.52416e-10		-1.01218e-08		0e-3
  0.8000		-5.52773e-10		-1.01262e-08		0e-3
  0.7500		-5.29408e-10		-1.01126e-08		0e-3
  0.7000		-5.19156e-10		-1.01804e-08		0e-3
  0.6500		-5.39780e-10		-1.01244e-08		0e-3
  0.6000		-5.17249e-10		-1.01939e-08		0e-3
  0.5500		-5.39899e-10		-1.01814e-08		0e-3
  0.5000		-5.12719e-10		-1.01373e-08		0e-3
  0.4500		-5.32746e-10		-1.01172e-08		0e-3
  0.4000		-5.12838e-10		-1.01696e-08		0e-3
  0.3500		-5.22017e-10		-1.01914e-08		0e-3
  0.3000		-5.29885e-10		-1.01655e-08		0e-3
  0.2500		-5.30958e-10		-1.01386e-08		0e-3
  0.2000		-4.87328e-10		-1.01745e-08		0e-3
  0.1500		-5.09262e-10		-1.01655e-08		0e-3
  0.1000		-5.11289e-10		-1.01285e-08		0e-3
  0.0500		-4.71115e-10		-1.01939e-08		0e-3
  -0.0000		-4.97699e-10		-1.01436e-08		0e-3
  -0.0500		-5.10573e-10		-1.01925e-08		0e-3
  -0.1000		-5.05805e-10		-1.02077e-08		0e-3
  -0.1500		-5.24998e-10		-1.01804e-08		0e-3
  -0.2000		-5.17130e-10		-1.01730e-08		0e-3
  -0.2500		-4.70638e-10		-1.01498e-08		0e-3
  -0.3000		-5.13673e-10		-1.01861e-08		0e-3
  -0.3500		-5.16295e-10		-1.01494e-08		0e-3
  -0.4000		-5.09262e-10		-1.01417e-08		0e-3
  -0.4500		-5.04732e-10		-1.01825e-08		0e-3
  -0.5000		-5.07951e-10		-1.01904e-08		0e-3
  -0.5500		-4.96626e-10		-1.01836e-08		0e-3
  -0.6000		-4.83394e-10		-1.01734e-08		0e-3
  -0.6500		-4.95672e-10		-1.01315e-08		0e-3
  -0.7000		-5.13911e-10		-1.01436e-08		0e-3
  -0.7500		-5.18203e-10		-1.01585e-08		0e-3
  -0.8000		-5.32985e-10		-1.01777e-08		0e-3
  -0.8500		-5.31316e-10		-1.01091e-08		0e-3
  -0.9000		-5.27263e-10		-1.01339e-08		0e-3
  -0.9500		-5.39064e-10		-1.01706e-08		0e-3
  -1.0000		-5.47290e-10		-1.01368e-08		0e-3
  -1.0500		-5.97596e-10		-1.01826e-08		0e-3
  -1.1000		-7.63416e-10		-1.02123e-08		0e-3
  -1.1500		-1.25813e-09		-1.01948e-08		0e-3
  -1.2000		-2.69675e-09		-1.01497e-08		0e-3
  -1.2500		-6.80566e-09		-1.01385e-08		0e-3
  -1.3000		-1.86672e-08		-1.00847e-08		0e-3
  -1.3500		-5.26476e-08		-1.01538e-08		0e-3
  -1.4000		-1.46744e-07		-1.01644e-08		0e-3
  -1.4500		-3.93440e-07		-1.01491e-08		0e-3
  -1.5000		-9.82821e-07		-1.01779e-08		0e-3
  -1.5500		-2.22266e-06		-1.01960e-08		0e-3
  -1.6000		-4.49069e-06		-1.01401e-08		0e-3
  -1.6500		-8.17728e-06		-1.01472e-08		0e-3
  -1.7000		-1.36002e-05		-1.01469e-08		0e-3
  -1.7500		-2.10128e-05		-1.01230e-08		0e-3
  -1.8000		-3.06327e-05		-1.01351e-08		0e-3
  -1.8500		-4.25475e-05		-1.01426e-08		0e-3
  -1.9000		-5.75066e-05		-1.01078e-08		0e-3
  -1.9500		-7.43031e-05		-1.01727e-08		0e-3
  -2.0000		-9.36866e-05		-1.01596e-08		0e-3
  -2.0500		-1.15466e-04		-1.01477e-08		0e-3
  -2.1000		-1.39797e-04		-1.01459e-08		0e-3
  -2.1500		-1.66667e-04		-1.01763e-08		0e-3
  -2.2000		-1.96123e-04		-1.00985e-08		0e-3
  -2.2500		-2.28107e-04		-1.01321e-08		0e-3
  -2.3000		-2.62403e-04		-1.01445e-08		0e-3
  -2.3500		-2.99394e-04		-1.01037e-08		0e-3
  -2.4000		-3.38602e-04		-1.01322e-08		0e-3
  -2.4500		-3.80182e-04		-1.01582e-08		0e-3
  -2.5000		-4.24111e-04		-1.01635e-08		0e-3
  -2.5500		-4.70173e-04		-1.01990e-08		0e-3
  -2.6000		-5.18489e-04		-1.01303e-08		0e-3
  -2.6500		-5.68938e-04		-1.01588e-08		0e-3
  -2.7000		-6.20997e-04		-1.01713e-08		0e-3
  -2.7500		-6.74987e-04		-1.01508e-08		0e-3
  -2.8000		-7.30467e-04		-1.01362e-08		0e-3
  -2.8500		-7.87163e-04		-1.01435e-08		0e-3
  -2.9000		-8.44836e-04		-1.00825e-08		0e-3
  -2.9500		-9.03356e-04		-1.01300e-08		0e-3
  -3.0000		-9.62317e-04		-1.01331e-08		0e-3
  -3.0500		-1.02177e-03		-1.01360e-08		0e-3
  -3.1000		-1.08120e-03		-1.01565e-08		0e-3
  -3.1500		-1.14074e-03		-1.01783e-08		0e-3
  -3.2000		-1.20027e-03		-1.01328e-08		0e-3
  -3.2500		-1.25965e-03		-1.01463e-08		0e-3
  -3.3000		-1.31887e-03		-1.02000e-08		0e-3
  -3.3500		-1.37781e-03		-1.01758e-08		0e-3
  -3.4000		-1.43638e-03		-1.01755e-08		0e-3
  -3.4500		-1.49487e-03		-1.01576e-08		0e-3
  -3.5000		-1.55292e-03		-1.01755e-08		0e-3
  -3.5500		-1.61064e-03		-1.01898e-08		0e-3
  -3.6000		-1.66801e-03		-1.01578e-08		0e-3
  -3.6500		-1.72504e-03		-1.01907e-08		0e-3
  -3.7000		-1.78177e-03		-1.01746e-08		0e-3
  -3.7500		-1.83792e-03		-1.01759e-08		0e-3
  -3.8000		-1.89369e-03		-1.01564e-08		0e-3
  -3.8500		-1.94943e-03		-1.01498e-08		0e-3
  -3.9000		-2.00450e-03		-1.02105e-08		0e-3
  -3.9500		-2.05926e-03		-1.01721e-08		0e-3
  -4.0000		-2.11381e-03		-1.01351e-08		0e-3
  -4.0500		-2.16781e-03		-1.02164e-08		0e-3
  -4.1000		-2.22147e-03		-1.01910e-08		0e-3
  -4.1500		-2.27481e-03		-1.01981e-08		0e-3
  -4.2000		-2.32736e-03		-1.01545e-08		0e-3
  -4.2500		-2.38051e-03		-1.01508e-08		0e-3
  -4.3000		-2.43282e-03		-1.01732e-08		0e-3
  -4.3500		-2.48480e-03		-1.01626e-08		0e-3
  -4.4000		-2.53651e-03		-1.01353e-08		0e-3
  -4.4500		-2.58784e-03		-1.01484e-08		0e-3
  -4.5000		-2.63888e-03		-1.01614e-08		0e-3
  -4.5500		-2.68956e-03		-1.01267e-08		0e-3
  -4.6000		-2.73993e-03		-1.01740e-08		0e-3
  -4.6500		-2.78999e-03		-1.01123e-08		0e-3
  -4.7000		-2.83982e-03		-1.01298e-08		0e-3
  -4.7500		-2.88930e-03		-1.01713e-08		0e-3
  -4.8000		-2.93854e-03		-1.01845e-08		0e-3
  -4.8500		-2.98730e-03		-1.01660e-08		0e-3
  -4.9000		-3.03586e-03		-1.01107e-08		0e-3
  -4.9500		-3.08434e-03		-1.01246e-08		0e-3
  -5.0000		-3.13196e-03		-1.01476e-08		0e-3
END_DB

BEGIN_DB
 ICCAP_VAR vd	-2.0300
 ICCAP_VAR vb	1.0000
 ICCAP_VAR ve	0
 ICCAP_VAR vs	0

 #vg              id              ig              ib
  1.0000		-7.19905e-10		-9.99284e-09		0e-3
  0.9500		-6.36935e-10		-1.00911e-08		0e-3
  0.9000		-6.27518e-10		-1.00869e-08		0e-3
  0.8500		-5.96523e-10		-1.01129e-08		0e-3
  0.8000		-6.33240e-10		-1.01151e-08		0e-3
  0.7500		-6.71506e-10		-1.01157e-08		0e-3
  0.7000		-6.08325e-10		-1.01550e-08		0e-3
  0.6500		-6.02961e-10		-1.01563e-08		0e-3
  0.6000		-6.31213e-10		-1.01078e-08		0e-3
  0.5500		-6.28233e-10		-1.01793e-08		0e-3
  0.5000		-6.06418e-10		-1.01640e-08		0e-3
  0.4500		-5.62906e-10		-1.01460e-08		0e-3
  0.4000		-6.05345e-10		-1.01223e-08		0e-3
  0.3500		-5.75662e-10		-1.01705e-08		0e-3
  0.3000		-5.90444e-10		-1.01881e-08		0e-3
  0.2500		-6.20604e-10		-1.01595e-08		0e-3
  0.2000		-6.04987e-10		-1.01553e-08		0e-3
  0.1500		-5.80192e-10		-1.01882e-08		0e-3
  0.1000		-6.07491e-10		-1.01783e-08		0e-3
  0.0500		-6.08206e-10		-1.01473e-08		0e-3
  -0.0000		-5.81264e-10		-1.01376e-08		0e-3
  -0.0500		-5.80072e-10		-1.02149e-08		0e-3
  -0.1000		-6.11305e-10		-1.01713e-08		0e-3
  -0.1500		-5.82337e-10		-1.01722e-08		0e-3
  -0.2000		-5.78642e-10		-1.02276e-08		0e-3
  -0.2500		-5.95689e-10		-1.01314e-08		0e-3
  -0.3000		-5.71847e-10		-1.01823e-08		0e-3
  -0.3500		-5.87583e-10		-1.01843e-08		0e-3
  -0.4000		-5.91517e-10		-1.01542e-08		0e-3
  -0.4500		-5.92828e-10		-1.01638e-08		0e-3
  -0.5000		-6.06656e-10		-1.01097e-08		0e-3
  -0.5500		-6.07133e-10		-1.01773e-08		0e-3
  -0.6000		-5.71251e-10		-1.01523e-08		0e-3
  -0.6500		-6.18577e-10		-1.02125e-08		0e-3
  -0.7000		-5.81980e-10		-1.01784e-08		0e-3
  -0.7500		-5.97715e-10		-1.01616e-08		0e-3
  -0.8000		-6.37650e-10		-1.01542e-08		0e-3
  -0.8500		-6.06060e-10		-1.01793e-08		0e-3
  -0.9000		-6.08683e-10		-1.01728e-08		0e-3
  -0.9500		-6.03914e-10		-1.01678e-08		0e-3
  -1.0000		-6.34074e-10		-1.01587e-08		0e-3
  -1.0500		-6.88314e-10		-1.01916e-08		0e-3
  -1.1000		-9.10640e-10		-1.01829e-08		0e-3
  -1.1500		-1.43576e-09		-1.01353e-08		0e-3
  -1.2000		-2.99180e-09		-1.01408e-08		0e-3
  -1.2500		-7.48789e-09		-1.01418e-08		0e-3
  -1.3000		-2.03174e-08		-1.01650e-08		0e-3
  -1.3500		-5.70607e-08		-1.01244e-08		0e-3
  -1.4000		-1.58073e-07		-1.01117e-08		0e-3
  -1.4500		-4.21482e-07		-1.01472e-08		0e-3
  -1.5000		-1.04662e-06		-1.01407e-08		0e-3
  -1.5500		-2.35416e-06		-1.01682e-08		0e-3
  -1.6000		-4.73579e-06		-1.01548e-08		0e-3
  -1.6500		-8.59332e-06		-1.01451e-08		0e-3
  -1.7000		-1.42484e-05		-1.01260e-08		0e-3
  -1.7500		-2.19523e-05		-1.01231e-08		0e-3
  -1.8000		-3.19359e-05		-1.01233e-08		0e-3
  -1.8500		-4.43043e-05		-1.01662e-08		0e-3
  -1.9000		-5.98550e-05		-1.01668e-08		0e-3
  -1.9500		-7.72953e-05		-1.01691e-08		0e-3
  -2.0000		-9.72509e-05		-1.01564e-08		0e-3
  -2.0500		-1.19925e-04		-1.01676e-08		0e-3
  -2.1000		-1.45257e-04		-1.01600e-08		0e-3
  -2.1500		-1.73175e-04		-1.01898e-08		0e-3
  -2.2000		-2.03586e-04		-1.01526e-08		0e-3
  -2.2500		-2.36869e-04		-1.01302e-08		0e-3
  -2.3000		-2.72703e-04		-1.01715e-08		0e-3
  -2.3500		-3.11160e-04		-1.01789e-08		0e-3
  -2.4000		-3.52132e-04		-1.01401e-08		0e-3
  -2.4500		-3.95775e-04		-1.01949e-08		0e-3
  -2.5000		-4.41909e-04		-1.01475e-08		0e-3
  -2.5500		-4.90451e-04		-1.01887e-08		0e-3
  -2.6000		-5.41615e-04		-1.01438e-08		0e-3
  -2.6500		-5.95367e-04		-1.01660e-08		0e-3
  -2.7000		-6.51336e-04		-1.01682e-08		0e-3
  -2.7500		-7.09963e-04		-1.01343e-08		0e-3
  -2.8000		-7.70783e-04		-1.01782e-08		0e-3
  -2.8500		-8.33845e-04		-1.01625e-08		0e-3
  -2.9000		-8.99649e-04		-1.02049e-08		0e-3
  -2.9500		-9.67574e-04		-1.01880e-08		0e-3
  -3.0000		-1.03782e-03		-1.01805e-08		0e-3
  -3.0500		-1.11049e-03		-1.01180e-08		0e-3
  -3.1000		-1.18536e-03		-1.01407e-08		0e-3
  -3.1500		-1.26231e-03		-1.01514e-08		0e-3
  -3.2000		-1.34158e-03		-1.01409e-08		0e-3
  -3.2500		-1.42287e-03		-1.01931e-08		0e-3
  -3.3000		-1.50656e-03		-1.01490e-08		0e-3
  -3.3500		-1.59215e-03		-1.01761e-08		0e-3
  -3.4000		-1.67979e-03		-1.01725e-08		0e-3
  -3.4500		-1.76961e-03		-1.01081e-08		0e-3
  -3.5000		-1.86111e-03		-1.01151e-08		0e-3
  -3.5500		-1.95407e-03		-1.01916e-08		0e-3
  -3.6000		-2.05009e-03		-1.01657e-08		0e-3
  -3.6500		-2.14711e-03		-1.01734e-08		0e-3
  -3.7000		-2.24550e-03		-1.02152e-08		0e-3
  -3.7500		-2.34572e-03		-1.01817e-08		0e-3
  -3.8000		-2.44710e-03		-1.02203e-08		0e-3
  -3.8500		-2.55007e-03		-1.01850e-08		0e-3
  -3.9000		-2.65358e-03		-1.02025e-08		0e-3
  -3.9500		-2.75799e-03		-1.01368e-08		0e-3
  -4.0000		-2.86341e-03		-1.01851e-08		0e-3
  -4.0500		-2.96926e-03		-1.01790e-08		0e-3
  -4.1000		-3.07537e-03		-1.02160e-08		0e-3
  -4.1500		-3.18196e-03		-1.01919e-08		0e-3
  -4.2000		-3.28808e-03		-1.01734e-08		0e-3
  -4.2500		-3.39465e-03		-1.01777e-08		0e-3
  -4.3000		-3.50075e-03		-1.01579e-08		0e-3
  -4.3500		-3.60661e-03		-1.01752e-08		0e-3
  -4.4000		-3.71244e-03		-1.01789e-08		0e-3
  -4.4500		-3.81694e-03		-1.01320e-08		0e-3
  -4.5000		-3.92214e-03		-1.01762e-08		0e-3
  -4.5500		-4.02657e-03		-1.01658e-08		0e-3
  -4.6000		-4.13013e-03		-1.01560e-08		0e-3
  -4.6500		-4.23329e-03		-1.01454e-08		0e-3
  -4.7000		-4.33604e-03		-1.01205e-08		0e-3
  -4.7500		-4.43797e-03		-1.01546e-08		0e-3
  -4.8000		-4.53963e-03		-1.01711e-08		0e-3
  -4.8500		-4.64036e-03		-1.01755e-08		0e-3
  -4.9000		-4.74056e-03		-1.01916e-08		0e-3
  -4.9500		-4.84036e-03		-1.01672e-08		0e-3
  -5.0000		-4.93921e-03		-1.01577e-08		0e-3
END_DB

BEGIN_DB
 ICCAP_VAR vd	-3.0200
 ICCAP_VAR vb	1.0000
 ICCAP_VAR ve	0
 ICCAP_VAR vs	0

 #vg              id              ig              ib
  1.0000		-8.92997e-10		-9.90844e-09		0e-3
  0.9500		-8.05974e-10		-1.01215e-08		0e-3
  0.9000		-7.58052e-10		-1.01429e-08		0e-3
  0.8500		-7.66516e-10		-1.00933e-08		0e-3
  0.8000		-7.53045e-10		-1.01215e-08		0e-3
  0.7500		-7.32422e-10		-1.00935e-08		0e-3
  0.7000		-7.31468e-10		-1.01461e-08		0e-3
  0.6500		-7.54237e-10		-1.01279e-08		0e-3
  0.6000		-7.36475e-10		-1.01206e-08		0e-3
  0.5500		-7.20501e-10		-1.01377e-08		0e-3
  0.5000		-7.11679e-10		-1.01122e-08		0e-3
  0.4500		-7.00355e-10		-1.01637e-08		0e-3
  0.4000		-7.25746e-10		-1.01388e-08		0e-3
  0.3500		-7.25985e-10		-1.01205e-08		0e-3
  0.3000		-7.34568e-10		-1.01924e-08		0e-3
  0.2500		-7.19666e-10		-1.01805e-08		0e-3
  0.2000		-6.99639e-10		-1.01701e-08		0e-3
  0.1500		-6.84977e-10		-1.01423e-08		0e-3
  0.1000		-7.07984e-10		-1.01781e-08		0e-3
  0.0500		-6.78301e-10		-1.01548e-08		0e-3
  -0.0000		-7.10130e-10		-1.01532e-08		0e-3
  -0.0500		-7.22170e-10		-1.01804e-08		0e-3
  -0.1000		-6.62327e-10		-1.01560e-08		0e-3
  -0.1500		-6.69718e-10		-1.01519e-08		0e-3
  -0.2000		-7.01904e-10		-1.01714e-08		0e-3
  -0.2500		-6.60658e-10		-1.01062e-08		0e-3
  -0.3000		-6.54459e-10		-1.01724e-08		0e-3
  -0.3500		-7.34448e-10		-1.01264e-08		0e-3
  -0.4000		-6.88314e-10		-1.01832e-08		0e-3
  -0.4500		-6.93202e-10		-1.01740e-08		0e-3
  -0.5000		-7.21216e-10		-1.01800e-08		0e-3
  -0.5500		-6.57678e-10		-1.01572e-08		0e-3
  -0.6000		-6.90103e-10		-1.01796e-08		0e-3
  -0.6500		-6.83427e-10		-1.01962e-08		0e-3
  -0.7000		-6.93321e-10		-1.01557e-08		0e-3
  -0.7500		-7.31230e-10		-1.01800e-08		0e-3
  -0.8000		-6.76513e-10		-1.01470e-08		0e-3
  -0.8500		-7.18713e-10		-1.01902e-08		0e-3
  -0.9000		-6.98805e-10		-1.01621e-08		0e-3
  -0.9500		-7.35760e-10		-1.01629e-08		0e-3
  -1.0000		-7.51019e-10		-1.01711e-08		0e-3
  -1.0500		-8.13246e-10		-1.01744e-08		0e-3
  -1.1000		-1.00458e-09		-1.01818e-08		0e-3
  -1.1500		-1.62995e-09		-1.01848e-08		0e-3
  -1.2000		-3.29685e-09		-1.01708e-08		0e-3
  -1.2500		-8.17347e-09		-1.01546e-08		0e-3
  -1.3000		-2.20956e-08		-1.01820e-08		0e-3
  -1.3500		-6.14130e-08		-1.01964e-08		0e-3
  -1.4000		-1.69663e-07		-1.01745e-08		0e-3
  -1.4500		-4.50079e-07		-1.01895e-08		0e-3
  -1.5000		-1.10924e-06		-1.01810e-08		0e-3
  -1.5500		-2.48424e-06		-1.01838e-08		0e-3
  -1.6000		-4.96864e-06		-1.01804e-08		0e-3
  -1.6500		-8.98099e-06		-1.01501e-08		0e-3
  -1.7000		-1.48317e-05		-1.01799e-08		0e-3
  -1.7500		-2.27928e-05		-1.01923e-08		0e-3
  -1.8000		-3.28282e-05		-1.01207e-08		0e-3
  -1.8500		-4.58436e-05		-1.01523e-08		0e-3
  -1.9000		-6.16550e-05		-1.01560e-08		0e-3
  -1.9500		-7.96437e-05		-1.01618e-08		0e-3
  -2.0000		-9.97901e-05		-1.01858e-08		0e-3
  -2.0500		-1.23441e-04		-1.01734e-08		0e-3
  -2.1000		-1.49536e-04		-1.01817e-08		0e-3
  -2.1500		-1.78277e-04		-1.01674e-08		0e-3
  -2.2000		-2.09785e-04		-1.01824e-08		0e-3
  -2.2500		-2.44045e-04		-1.02066e-08		0e-3
  -2.3000		-2.80869e-04		-1.02222e-08		0e-3
  -2.3500		-3.20482e-04		-1.01860e-08		0e-3
